(1645994398.626163) can0 0C9#801633163A4008
(1645994398.626387) can0 191#07CA07CA07CB4343
(1645994398.627625) can0 3ED#8000000000FF0000
(1645994398.628232) can0 0C1#23C9ED772123FBAD
(1645994398.628519) can0 0C5#21456DC5201D9412
(1645994398.628654) can0 1E5#46FFAAC000005401
(1645994398.633254) can0 0F9#00B4400AAF658420
(1645994398.633579) can0 199#0FFF0FFFF00100FF
(1645994398.633761) can0 0F1#00030040
(1645994398.633978) can0 19D#0000000000158A16
(1645994398.634300) can0 1F5#4404000400000100
(1645994398.636353) can0 1F3#0000
(1645994398.637328) can0 0C1#33D311D1312D2002
(1645994398.637553) can0 0C5#314C8F553024B591
(1645994398.637778) can0 184#000200000000
(1645994398.638003) can0 1C7#06E4B91A00003F
(1645994398.638183) can0 0C9#801633193A4008
(1645994398.638429) can0 1CD#0000000000
(1645994398.638655) can0 191#07CA07CA07CA4343
(1645994398.638855) can0 1E5#46FFAAE000005301
(1645994398.639055) can0 1A1#00204000000042
(1645994398.639305) can0 1E9#0FE6000C00000000
(1645994398.639604) can0 1C3#07CA07C700004300
(1645994398.643728) can0 0F1#1C020040
(1645994398.645829) can0 0F9#00B4400AB565AA20
(1645994398.646154) can0 199#4FFF0FFFF00000FF
(1645994398.646522) can0 0C1#03DD3632013640C9
(1645994398.646747) can0 0C5#0154B5AF002CDBDB
(1645994398.646997) can0 1E5#46FFAA8000005601
(1645994398.650519) can0 0C9#8016191C3A4008
(1645994398.650715) can0 191#07C907C907CA4343
(1645994398.653708) can0 0F1#28030040
(1645994398.655291) can0 0C1#13E656F91140652C
(1645994398.655574) can0 0C5#115BD7331033FD66
(1645994398.655767) can0 184#000300000000
(1645994398.656025) can0 1C7#06E4F91900003F
(1645994398.656225) can0 1CD#0000000000
(1645994398.656433) can0 1E1#00FE120040
(1645994398.656606) can0 1E5#46FFAAA000005501
(1645994398.656855) can0 1E9#0FF9000C00000000
(1645994398.657004) can0 334#0000
(1645994398.658356) can0 0F9#00B4400AB565AA20
(1645994398.658704) can0 199#8FFF0FFFEFFF00FF
(1645994398.659008) can0 19D#40003FFF00158816
(1645994398.659329) can0 1F5#4404000400000100
(1645994398.663104) can0 0C9#801627133A4008
(1645994398.663330) can0 191#07C907C907C94343
(1645994398.663554) can0 1A1#00204000000042
(1645994398.663828) can0 1C3#07C907C600004300
(1645994398.664029) can0 2C3#081506A0074D
(1645994398.664256) can0 0C1#23F07B6B214985DC
(1645994398.664437) can0 0F1#34030040
(1645994398.664605) can0 0C5#2162F8C3203A1ED5
(1645994398.664831) can0 1E5#46FFAAC000005401
(1645994398.666630) can0 1F3#0000
(1645994398.667159) can0 2F9#3301000000
(1645994398.667429) can0 348#0B050B04
(1645994398.667607) can0 34A#0AF80AFD
(1645994398.671056) can0 0F9#00B4400AB965CC20
(1645994398.671355) can0 199#CFFF0FFFEFFE00FF
(1645994398.673303) can0 0C1#33F99C2C3153AA3E
(1645994398.673553) can0 0C5#31691A493042451E
(1645994398.673730) can0 0F1#00030040
(1645994398.673954) can0 184#000000000000
(1645994398.674153) can0 1C7#06E4391C00003F
(1645994398.674354) can0 1CD#0000000000
(1645994398.674604) can0 1E5#46FFAAE000005301
(1645994398.674831) can0 1E9#0FF4000C00000000
(1645994398.676255) can0 0C9#801636163A4008
(1645994398.676505) can0 191#07CA07CA07C94343
(1645994398.676791) can0 12A#4700000045773FFF
(1645994398.678679) can0 134#00001000
(1645994398.681229) can0 1F1#AE1600000800007A
(1645994398.682523) can0 0C1#0003C091015DCEA2
(1645994398.682723) can0 0C5#017140A1004966AB
(1645994398.682971) can0 1E5#46FFAA8000005601
(1645994398.683221) can0 0F9#00B4400AB965CC20
(1645994398.683523) can0 199#0FFF0FFFF00100FF
(1645994398.683701) can0 0F1#1C030040
(1645994398.683945) can0 19D#80003FFE0015AB16
(1645994398.684249) can0 1F5#4404000400000100
(1645994398.685212) can0 334#0000
(1645994398.686363) can0 1E1#00FD130060
(1645994398.688163) can0 0C9#801643193A4008
(1645994398.688279) can0 191#07CA07CA07CA4343
(1645994398.688636) can0 1A1#00204000000042
(1645994398.688904) can0 1C3#07CA07C700004300
(1645994398.689150) can0 3C9#0766000000000000
(1645994398.691303) can0 0C1#100DE4F31166EF70
(1645994398.691552) can0 0C5#1178623510508821
(1645994398.691754) can0 184#000100000000
(1645994398.692003) can0 1C7#06E4791B00003F
(1645994398.692208) can0 1CD#0000000000
(1645994398.692475) can0 1E5#46FFAAA000005501
(1645994398.692650) can0 1E9#0FF1000C0FFE0000
(1645994398.693555) can0 0F1#28030040
(1645994398.696004) can0 0F9#00B4400AAF65F320
(1645994398.696308) can0 199#4FFF0FFFF00000FF
(1645994398.696384) can0 1F3#0000
(1645994398.700323) can0 0C1#201605B7217013CE
(1645994398.700550) can0 0C5#217F83B12057A9B1
(1645994398.700626) can0 0C9#80165A1C3A4008
(1645994398.701004) can0 17D#04E8000078000100
(1645994398.701097) can0 191#07CA07CA07CA4343
(1645994398.701410) can0 17F#0000000000000000
(1645994398.701656) can0 1E5#46FFAAC000005401
(1645994398.703729) can0 0F1#34030040
(1645994398.708157) can0 0F9#00B4400AAF65F320
(1645994398.708607) can0 199#8FFF0FFFEFFF00FF
(1645994398.708722) can0 19D#C0003FFD00157716
(1645994398.709177) can0 1F5#4404000400000100
(1645994398.709273) can0 0C1#30202A17317A382E
(1645994398.709662) can0 0C5#3187AA13305FD01A
(1645994398.709755) can0 184#000200000000
(1645994398.710111) can0 1C7#06E4B91A00003F
(1645994398.710179) can0 1CD#0000000000
(1645994398.710524) can0 1E5#46FFAAE000005301
(1645994398.710720) can0 1E9#0FEB000C0FFE0000
(1645994398.713030) can0 0C9#801667133A4008
(1645994398.713279) can0 191#07CA07CA07CA4343
(1645994398.713523) can0 1A1#00204000000042
(1645994398.713747) can0 1C3#07CA07C700004300
(1645994398.713947) can0 2C3#081706A0074D
(1645994398.714132) can0 0F1#00030040
(1645994398.714324) can0 3C1#0765E70000000000
(1645994398.714555) can0 3D1#015C800021D80000
(1645994398.714805) can0 3E9#15A30A02157505A1
(1645994398.715057) can0 3F9#0018DF535A052C27
(1645994398.715275) can0 2F9#3B01000000
(1645994398.715452) can0 3FB#0200
(1645994398.715504) can0 334#0000
(1645994398.715778) can0 4C1#15C6893A6D800000
(1645994398.715957) can0 348#0B070B05
(1645994398.716206) can0 4D1#00003D02127900C8
(1645994398.716356) can0 34A#0AF60AF4
(1645994398.716580) can0 4F1#01B301B3000000C8
(1645994398.716811) can0 772#00000000000000
(1645994398.717004) can0 1E1#0000100000
(1645994398.718499) can0 0C1#002A4E7B01845C99
(1645994398.718720) can0 0C5#018ECB930066F185
(1645994398.718970) can0 1E5#46FFAA8000005601
(1645994398.721032) can0 0F9#00B4400ABA661520
(1645994398.721329) can0 199#CFFF0FFFEFFE00FF
(1645994398.723511) can0 0F1#1C030040
(1645994398.723907) can0 1F3#0000
(1645994398.725379) can0 0C9#80166E163A4008
(1645994398.725605) can0 191#07CA07CA07CA4343
(1645994398.727281) can0 0C1#10336F3B118D7D4F
(1645994398.727523) can0 0C5#1195ED0D106E17C3
(1645994398.727771) can0 3ED#8000000000FF0000
(1645994398.727996) can0 184#000300000000
(1645994398.728219) can0 1C7#06E4F91900003F
(1645994398.728423) can0 1CD#0000000000
(1645994398.728632) can0 1E5#46FFAAA000005501
(1645994398.728881) can0 1E9#0FF1000C0FFE0000
(1645994398.733239) can0 0F9#00B4400ABA661520
(1645994398.733530) can0 199#0FFF0FFFF00100FF
(1645994398.733753) can0 0F1#28030040
(1645994398.734002) can0 19D#0000000000159216
(1645994398.734303) can0 1F5#4404000400000100
(1645994398.736158) can0 0C1#203D939D2197A1B0
(1645994398.736403) can0 0C5#219D136620753953
(1645994398.736655) can0 1E5#46FFAAC000005401
(1645994398.738734) can0 0C9#801658193A4008
(1645994398.738944) can0 191#07CA07CA07CA4343
(1645994398.739204) can0 1A1#00204000000042
(1645994398.739475) can0 1C3#07CA07C700004300
(1645994398.743557) can0 0F1#34030040
(1645994398.743805) can0 1E1#00FF110020
(1645994398.745280) can0 0C1#3046B45F31A0C277
(1645994398.745524) can0 0C5#31A434F7307C5ACE
(1645994398.745772) can0 0F9#00B4400AB1663B20
(1645994398.745972) can0 184#000000000000
(1645994398.746222) can0 199#4FFF0FFFF00000FF
(1645994398.746447) can0 1C7#06E4391C00003F
(1645994398.746606) can0 1CD#0000000000
(1645994398.746855) can0 1E5#46FFAAE000005301
(1645994398.747105) can0 1E9#0FF6000C0FFE0000
(1645994398.747255) can0 334#0000
(1645994398.750509) can0 0C9#8016581C3A4008
(1645994398.750803) can0 191#07CA07CA07CA4343
(1645994398.753628) can0 0F1#00030040
(1645994398.753930) can0 1F3#0000
(1645994398.754523) can0 0C1#0050D8C801AAE6CE
(1645994398.754703) can0 0C5#01AC5B5A00848127
(1645994398.754947) can0 1E5#46FFAA8000005601
(1645994398.758332) can0 0F9#00B4400AB1663B20
(1645994398.758629) can0 199#8FFF0FFFEFFF00FF
(1645994398.758949) can0 19D#40003FFF00158B16
(1645994398.759255) can0 1F5#4404000400000100
(1645994398.762836) can0 0C9#801666133A4008
(1645994398.763104) can0 191#07CA07CA07CA4343
(1645994398.763329) can0 1A1#00204000000041
(1645994398.763580) can0 0C1#105AFD3011B40B29
(1645994398.763807) can0 1C3#07CA07C700004300
(1645994398.764007) can0 0C5#11B37CE2108BA2C1
(1645994398.764158) can0 0F1#1C030040
(1645994398.764380) can0 184#000100000000
(1645994398.764580) can0 2C3#081706A0074B
(1645994398.764805) can0 1C7#06E4791B00003F
(1645994398.765054) can0 1CD#0000000000
(1645994398.765279) can0 1E5#46FFAAA000005501
(1645994398.765558) can0 1E9#0FFC000C00010000
(1645994398.765744) can0 2F9#4301000000
(1645994398.765908) can0 348#0B060B08
(1645994398.766082) can0 34A#0AF50AF7
(1645994398.770930) can0 0F9#00B4400AB7665D20
(1645994398.771281) can0 199#CFFF0FFFEFFE00FF
(1645994398.772157) can0 0C1#20631DF121BD2BDF
(1645994398.772380) can0 0C5#21BA9E6F2092C437
(1645994398.772630) can0 1E5#46FFAAC000005401
(1645994398.773581) can0 0F1#28030040
(1645994398.775079) can0 334#0000
(1645994398.775471) can0 0C9#801659163A4008
(1645994398.775555) can0 191#07C907C907CA4343
(1645994398.776698) can0 12A#4700000045773FFF
(1645994398.778523) can0 134#00001000
(1645994398.778797) can0 1E1#00FE120040
(1645994398.781158) can0 1F1#AE1600000800007A
(1645994398.781379) can0 0C1#306D426031C7504C
(1645994398.781632) can0 0C5#31C1BFE6309AEA79
(1645994398.781831) can0 184#000200000000
(1645994398.782080) can0 1C7#06E4B91A00003F
(1645994398.782280) can0 1CD#0000000000
(1645994398.782476) can0 1E5#46FFAAE000005301
(1645994398.782747) can0 1E9#0FFC000C00030000
(1645994398.783176) can0 0F9#00B4400AB7665D20
(1645994398.783511) can0 199#0FFF0FFFF00100FF
(1645994398.783704) can0 0F1#34030040
(1645994398.783933) can0 19D#80003FFE00159016
(1645994398.784222) can0 1F5#4404000400000100
(1645994398.786255) can0 1F3#0000
(1645994398.788275) can0 0C9#801664193A4008
(1645994398.788355) can0 191#07C907C907C94343
(1645994398.788708) can0 1A1#00204000000042
(1645994398.788833) can0 1C3#07C907C700004300
(1645994398.789292) can0 3C9#0766000000000000
(1645994398.790441) can0 0C1#007766CE01D174AD
(1645994398.790680) can0 0C5#01C9E62B00A10C08
(1645994398.790932) can0 1E5#46FFAA8000005601
(1645994398.791526) can0 3F1#00CF5A18FFFF006C
(1645994398.793559) can0 0F1#00030040
(1645994398.795905) can0 0F9#00B4400AB2668420
(1645994398.796207) can0 199#4FFF0FFFF00000FF
(1645994398.799507) can0 0C1#1080878D11DA9580
(1645994398.799606) can0 0C5#11D007B810A82D80
(1645994398.799929) can0 17D#04E8000078000100
(1645994398.800184) can0 17F#0000000000000000
(1645994398.800404) can0 184#000300000000
(1645994398.800626) can0 1C7#06E4F91900003F
(1645994398.800956) can0 1CD#0000000000
(1645994398.801057) can0 1E5#46FFAAA000005501
(1645994398.801411) can0 0C9#80166D1C3A4008
(1645994398.801509) can0 1E9#0FF1000C00030000
(1645994398.801805) can0 191#07C807C807C94343
(1645994398.803830) can0 0F1#1C030040
(1645994398.805033) can0 334#0000
(1645994398.806308) can0 1E1#00FD130060
(1645994398.808132) can0 0C1#208AABED21E4B9E5
(1645994398.808355) can0 0F9#00B4400AB2668420
(1645994398.808604) can0 0C5#21D7293820B053D7
(1645994398.808829) can0 199#8FFF0FFFEFFF00FF
(1645994398.809080) can0 1E5#46FFAAC000005401
(1645994398.809305) can0 19D#C0003FFD00158B16
(1645994398.809629) can0 1F5#4404000400000100
(1645994398.811129) can0 2F9#4B01000000
(1645994398.811357) can0 348#0B080B03
(1645994398.811478) can0 34A#0AF90AF9
(1645994398.812960) can0 0C9#801659133A4008
(1645994398.813260) can0 191#07C807C807C84343
(1645994398.813493) can0 1A1#00204000000041
(1645994398.813721) can0 1C3#07C807C700004300
(1645994398.813927) can0 2C3#081806A0074C
(1645994398.814104) can0 0F1#28030040
(1645994398.814298) can0 3C1#0765E70000000000
(1645994398.814654) can0 3D1#015C8000219B0000
(1645994398.814904) can0 3E9#159B0A15157105B4
(1645994398.816808) can0 1F3#0000
(1645994398.817185) can0 0C1#3094D05031EEDE48
(1645994398.817526) can0 0C5#31DF4F9430B77576
(1645994398.817703) can0 184#000000000000
(1645994398.817922) can0 1C7#06E4391C00003F
(1645994398.818074) can0 1CD#0000000000
(1645994398.818373) can0 1E5#46FFAAE000005301
(1645994398.818629) can0 1E9#0FEE000C00030000
(1645994398.821057) can0 0F9#00B4400AB566A620
(1645994398.821380) can0 199#CFFF0FFFEFFE00FF
(1645994398.823496) can0 0F1#34030040
(1645994398.825521) can0 0C9#801653163A4008
(1645994398.825727) can0 191#07C907C907C84343
(1645994398.826383) can0 0C1#009EF4B101F802AF
(1645994398.826655) can0 0C5#01E6712C00BE96EE
(1645994398.826904) can0 1E5#46FFAA8000005601
(1645994398.827659) can0 3ED#8000000000FF0000
(1645994398.833279) can0 0F9#00B4400AB566A620
(1645994398.833669) can0 199#0FFF0FFFF00100FF
(1645994398.833706) can0 0F1#00030040
(1645994398.834085) can0 19D#0000000000158416
(1645994398.834307) can0 1F5#4404000400000100
(1645994398.835330) can0 0C1#10A7157B1201235C
(1645994398.835552) can0 0C5#11ED92B510C6BD34
(1645994398.835659) can0 184#000100000000
(1645994398.836001) can0 1C7#06E4791B00003F
(1645994398.836072) can0 1CD#0000000000
(1645994398.836323) can0 1E1#0000100000
(1645994398.836554) can0 1E5#46FFAAA000005501
(1645994398.836804) can0 1E9#0FFF000C00030000
(1645994398.836983) can0 334#0000
(1645994398.837954) can0 0C9#801640193A4008
(1645994398.838204) can0 191#07C907C907C94343
(1645994398.838429) can0 1A1#00204000000041
(1645994398.838632) can0 1C3#07C907C800004300
(1645994398.843511) can0 0F1#1C030040
(1645994398.844060) can0 0C1#20B139EB220B47B8
(1645994398.844424) can0 0C5#21F5B90A20CDDEC1
(1645994398.844531) can0 1E5#46FFAAC000005401
(1645994398.845769) can0 0F9#00B4400AB566CC20
(1645994398.845990) can0 199#4FFF0FFFF00000FF
(1645994398.846325) can0 1F3#0000
(1645994398.850862) can0 0C9#8016341C3A4008
(1645994398.851080) can0 191#07C807C807C94343
(1645994398.853282) can0 0C1#30BA5ABA32146884
(1645994398.853525) can0 0C5#31FCDA9830D40035
(1645994398.853573) can0 0F1#28030040
(1645994398.853900) can0 184#000200000000
(1645994398.853999) can0 1C7#06E4B91A00003F
(1645994398.854270) can0 1CD#0000000000
(1645994398.854524) can0 1E5#46FFAAE000005301
(1645994398.854771) can0 1E9#0FFB000C00030000
(1645994398.858401) can0 0F9#00B4400AB566CC20
(1645994398.858703) can0 199#8FFF0FFFEFFF00FF
(1645994398.859041) can0 19D#40003FFF0015A016
(1645994398.859183) can0 2F9#5301000000
(1645994398.859528) can0 1F5#4404000400000100
(1645994398.859573) can0 348#0B030B05
(1645994398.859823) can0 34A#0AF80AFB
(1645994398.862404) can0 0C1#00C47F29021E8CEF
(1645994398.862656) can0 0C5#020400E800DC267F
(1645994398.862905) can0 1E5#46FFAA8000005601
(1645994398.863138) can0 0C9#801634133A4008
(1645994398.863355) can0 191#07C807C807C84343
(1645994398.863581) can0 1A1#00204000000041
(1645994398.863879) can0 1C3#07C807C800004300
(1645994398.864059) can0 0F1#34020040
(1645994398.864263) can0 2C3#081806A0074C
(1645994398.864961) can0 334#0000
(1645994398.866680) can0 1E1#00FF110020
(1645994398.870758) can0 0F9#00B4400AAD66F320
(1645994398.871158) can0 199#CFFF0FFFEFFE00FF
(1645994398.871256) can0 0C1#10CEA3971228B155
(1645994398.871639) can0 0C5#120B226510E34818
(1645994398.871731) can0 184#000300000000
(1645994398.872088) can0 1C7#06E4F91900003F
(1645994398.872155) can0 1CD#0000000000
(1645994398.872608) can0 1E5#46FFAAA000005501
(1645994398.872672) can0 1E9#0FFC000C00010000
(1645994398.873525) can0 0F1#00030040
(1645994398.873801) can0 12A#4700000045773FFF
(1645994398.875380) can0 0C9#801621163A4008
(1645994398.875631) can0 191#07C707C707C84343
(1645994398.876435) can0 134#00001000
(1645994398.878524) can0 1F1#AE1600000800007A
(1645994398.878797) can0 1F3#0000
(1645994398.880080) can0 0C1#20D7C4572231D20B
(1645994398.880331) can0 0C5#221243F220EA6995
(1645994398.880579) can0 1E5#46FFAAC000005401
(1645994398.881079) can0 3C9#0766000000000000
(1645994398.883206) can0 0F9#00B4400AAD66F320
(1645994398.883524) can0 199#0FFF0FFFF00100FF
(1645994398.883706) can0 0F1#1C030040
(1645994398.883898) can0 19D#80003FFE00157616
(1645994398.884226) can0 1F5#4404000400000100
(1645994398.887855) can0 0C9#801620193A4008
(1645994398.888081) can0 191#07C707C707C84343
(1645994398.888333) can0 1A1#00204000000041
(1645994398.888509) can0 1C3#07C707C800004300
(1645994398.889179) can0 0C1#30E1E8BA323BF677
(1645994398.889431) can0 0C5#3219657B30F28FED
(1645994398.889654) can0 184#000000000000
(1645994398.889882) can0 1C7#06E4391C00003F
(1645994398.890080) can0 1CD#0000000000
(1645994398.890282) can0 1E5#46FFAAE000005301
(1645994398.890531) can0 1E9#0FF6000C00010000
(1645994398.893541) can0 0F1#28020040
(1645994398.895102) can0 334#0000
(1645994398.896031) can0 0F9#00B4400AB5671520
(1645994398.896081) can0 1E1#00FE120040
(1645994398.896458) can0 199#4FFF0FFFF00000FF
(1645994398.898404) can0 0C1#00EB0D2102451AEA
(1645994398.898737) can0 0C5#02218BD300F9B188
(1645994398.898967) can0 17D#04E8000078000100
(1645994398.899181) can0 17F#0000000000000000
(1645994398.899431) can0 1E5#46FFAA8000005601
(1645994398.900895) can0 0C9#8016031C3A4008
(1645994398.901155) can0 191#07C807C807C74343
(1645994398.903605) can0 0F1#34020040
(1645994398.906082) can0 1F3#0000
(1645994398.907357) can0 0C1#10F42DE8124E3BBC
(1645994398.907607) can0 0C5#1228AD681100D301
(1645994398.907830) can0 184#000100000000
(1645994398.908054) can0 1C7#06E4791B00003F
(1645994398.908257) can0 1CD#0000000000
(1645994398.908524) can0 0F9#00B4400AB5671520
(1645994398.908723) can0 1E5#46FFAAA000005501
(1645994398.908899) can0 199#8FFF0FFFEFFF00FF
(1645994398.909148) can0 1E9#0FF8000C00030000
(1645994398.909398) can0 19D#C0003FFD00159016
(1645994398.909581) can0 2F9#5B01000000
(1645994398.909880) can0 1F5#4404000400000100
(1645994398.910057) can0 348#0B060B00
(1645994398.910235) can0 34A#0AF70AF7
(1645994398.913005) can0 0C9#8015F4133A4008
(1645994398.913255) can0 191#07C807C807C84343
(1645994398.913525) can0 1A1#00204000000041
(1645994398.913723) can0 1C3#07C807C800004300
(1645994398.913912) can0 0F1#00030040
(1645994398.914050) can0 2C3#081706A0074E
(1645994398.914299) can0 3C1#0765E70000000000
(1645994398.914556) can0 3D1#015C8000218B0000
(1645994398.914875) can0 3E9#15A30A28157605C7
(1645994398.916055) can0 0C1#20FE52552258602A
(1645994398.916316) can0 0C5#222FCEF32108F957
(1645994398.916555) can0 1E5#46FFAAC000005401
(1645994398.920882) can0 0F9#00B4400AAF673B20
(1645994398.921288) can0 199#CFFF0FFFEFFE00FF
(1645994398.923554) can0 0F1#1C030040
(1645994398.923930) can0 1E1#00FD130060
(1645994398.925189) can0 0C1#3107731D326180DD
(1645994398.925411) can0 0C9#801605163A4008
(1645994398.925632) can0 0C5#3237F54E310F1AEC
(1645994398.925857) can0 191#07C907C907C84242
(1645994398.926081) can0 184#000200000000
(1645994398.926313) can0 1C7#06E4B91A00003F
(1645994398.926481) can0 1CD#0000000000
(1645994398.926725) can0 1E5#46FFAAE000005301
(1645994398.926974) can0 1E9#0FFD000C00050000
(1645994398.927171) can0 334#0000
(1645994398.927630) can0 3ED#8000000000FF0000
(1645994398.933212) can0 0F9#00B4400AAF673B20
(1645994398.933608) can0 199#0FFF0FFFF00100FF
(1645994398.933649) can0 0F1#28030040
(1645994398.934004) can0 19D#0000000000157916
(1645994398.934249) can0 1F5#4404000400000100
(1645994398.934602) can0 0C1#01119791026BA53D
(1645994398.934675) can0 4C9#4062253400000000
(1645994398.934948) can0 0C5#023E16E201163C5F
(1645994398.935197) can0 1E5#46FFAA8000005601
(1645994398.936160) can0 1F3#0000
(1645994398.937930) can0 0C9#80160519394008
(1645994398.938180) can0 191#07C907C907C94242
(1645994398.938405) can0 1A1#00204000000040
(1645994398.938657) can0 1C3#07C907C700004200
(1645994398.943112) can0 0C1#111BBC001275C9A7
(1645994398.943482) can0 0C5#12453869111E62AE
(1645994398.943505) can0 0F1#34030040
(1645994398.943875) can0 184#000300000000
(1645994398.943956) can0 1C7#06E4F91900003F
(1645994398.944288) can0 1CD#0000000000
(1645994398.944526) can0 1E5#46FFAAA000005501
(1645994398.944723) can0 1E9#0FF6000C00050000
(1645994398.945654) can0 0F9#00B4400AB3675D20
(1645994398.945979) can0 199#4FFF0FFFF00000FF
(1645994398.950330) can0 0C9#8015FF1C394008
(1645994398.950564) can0 191#07CB07CB07C94242
(1645994398.952030) can0 0C1#2124DCCE227EEA82
(1645994398.952284) can0 0C5#224D5EC321258443
(1645994398.952505) can0 1E5#46FFAAC000005401
(1645994398.953492) can0 0F1#00030040
(1645994398.953881) can0 1E1#0000100000
(1645994398.955055) can0 2F9#6301000000
(1645994398.955238) can0 334#0000
(1645994398.955431) can0 348#0B040B01
(1645994398.955609) can0 34A#0AF60AF9
(1645994398.958285) can0 0F9#00B4400AB3675D20
(1645994398.958605) can0 199#8FFF0FFFEFFF00FF
(1645994398.958904) can0 19D#40003FFF00158F16
(1645994398.959231) can0 1F5#4404000400000100
(1645994398.961158) can0 0C1#312E013532880EED
(1645994398.961380) can0 0C5#3254804E312CA5C4
(1645994398.961606) can0 184#000000000000
(1645994398.961831) can0 1C7#06E4391C00003F
(1645994398.962056) can0 1CD#0000000000
(1645994398.962281) can0 1E5#46FFAAE000005301
(1645994398.962528) can0 1E9#0FF2000C00070000
(1645994398.963583) can0 0C9#80160D13394008
(1645994398.963832) can0 191#07CB07CB07CB4242
(1645994398.963982) can0 0F1#1C030040
(1645994398.964210) can0 1A1#00204000000040
(1645994398.964493) can0 1C3#07CB07C300004200
(1645994398.964721) can0 2C3#081606A0074F
(1645994398.964948) can0 3F9#0018F1535A052C27
(1645994398.965126) can0 3FB#0200
(1645994398.966655) can0 1F3#0000
(1645994398.970333) can0 0C1#0138259D0292335C
(1645994398.970581) can0 0C5#025CA69E0134CC22
(1645994398.970916) can0 1E5#46FFAA8000005601
(1645994398.971006) can0 0F9#00B4400AB1678420
(1645994398.971466) can0 199#CFFF0FFFEFFE00FF
(1645994398.973437) can0 0F1#28030040
(1645994398.973913) can0 12A#4700000045773FFF
(1645994398.975506) can0 0C9#80160D16394008
(1645994398.975582) can0 191#07CB07CB07CB4242
(1645994398.976496) can0 134#00001000
(1645994398.978346) can0 1F1#AE1600000800007A
(1645994398.978729) can0 3C9#0766000000000000
(1645994398.979155) can0 0C1#11414659129B541D
(1645994398.979345) can0 0C5#1263C82B113BEDC4
(1645994398.979607) can0 184#000100000000
(1645994398.979831) can0 1C7#06E4791B00003F
(1645994398.980055) can0 1CD#0000000000
(1645994398.980276) can0 1E5#46FFAAA000005501
(1645994398.980554) can0 1E9#0FF2000C00070000
(1645994398.983136) can0 0F9#00B4400AB1678420
(1645994398.983357) can0 0F1#34030040
(1645994398.983607) can0 199#0FFF0FFFF00100FF
(1645994398.983830) can0 1E1#00FF110020
(1645994398.984079) can0 19D#80003FFE00158C16
(1645994398.984380) can0 1F5#4404000400000100
(1645994398.984931) can0 334#0000
(1645994398.988031) can0 0C1#214B6AC122A57886
(1645994398.988234) can0 0C9#8015E919394008
(1645994398.988524) can0 0C5#226AE9BE21420F4B
(1645994398.988708) can0 191#07CB07CB07CB4141
(1645994398.988948) can0 1E5#46FFAAC000005401
(1645994398.989174) can0 1A1#0020400000003F
(1645994398.989423) can0 1C3#07CB07C300004100
(1645994398.993387) can0 0F1#00030040
(1645994398.993606) can0 1F3#0000
(1645994398.995960) can0 0F9#00B4400AB067A620
(1645994398.996334) can0 199#4FFF0FFFF00000FF
(1645994398.997308) can0 0C1#31558F2E32AF9CF4
(1645994398.997526) can0 0C5#32710B4E314A35A3
(1645994398.997797) can0 17D#04E8000078000100
(1645994398.998049) can0 17F#0000000000000000
(1645994398.998272) can0 184#000200000000
(1645994398.998525) can0 1C7#06E4B91A00003F
(1645994398.998723) can0 1CD#0000000000
(1645994398.998925) can0 1E5#46FFAAE000005301
(1645994398.999174) can0 1E9#0FF5000C000B0000
(1645994399.000611) can0 0C9#8016041C384008
(1645994399.000856) can0 191#07CC07CC07CB4040
(1645994399.003005) can0 2F9#6B01000000
(1645994399.003195) can0 348#0B040B02
(1645994399.003405) can0 34A#0AF50AF7
(1645994399.003682) can0 0F1#1C030040
(1645994399.006332) can0 0C1#015EAFF902B9C160
(1645994399.006576) can0 0C5#027931AA01515739
(1645994399.006832) can0 1E5#46FFAA8000005601
(1645994399.008433) can0 0F9#00B4400AB067A620
(1645994399.008731) can0 199#8FFF0FFFEFFF00FF
(1645994399.009031) can0 19D#C0003FFD00158016
(1645994399.009355) can0 1F5#4404000400000100
(1645994399.013706) can0 0C9#80161113384008
(1645994399.013886) can0 0F1#28030040
(1645994399.014111) can0 191#07CC07CC07CC4040
(1645994399.014465) can0 1A1#0020400000003F
(1645994399.014581) can0 1C3#07CC07C300004000
(1645994399.014832) can0 2C3#081606A0074F
(1645994399.015084) can0 3C1#0765E70000000000
(1645994399.015306) can0 0C1#1168D47112C2E22F
(1645994399.015555) can0 3D1#015C800021920000
(1645994399.015780) can0 0C5#1280533D115878B5
(1645994399.015957) can0 3E9#159F0A3B157305DC
(1645994399.016184) can0 184#000300000000
(1645994399.016476) can0 1C7#06E4F91900003F
(1645994399.016598) can0 1E1#00FE120040
(1645994399.016798) can0 1CD#0000000000
(1645994399.017049) can0 1E5#46FFAAA000005501
(1645994399.017347) can0 1E9#0FF8000C000B0000
(1645994399.017527) can0 334#0000
(1645994399.021058) can0 0F9#00B4400AB267CC1F
(1645994399.021381) can0 199#CFFF0FFFEFFE00FF
(1645994399.023357) can0 0F1#34030040
(1645994399.023757) can0 1F3#0000
(1645994399.024008) can0 0C1#2171F53A22CB02E3
(1645994399.024260) can0 0C5#228774C1215F9A4C
(1645994399.024525) can0 1E5#46FFAAC000005401
(1645994399.025425) can0 0C9#80162216384008
(1645994399.025656) can0 191#07CC07CC07CC4040
(1645994399.026381) can0 3F1#00CF5A18FFFF006C
(1645994399.027608) can0 3ED#8000000000FF0000
(1645994399.032905) can0 0F9#00B4400AB267CC1F
(1645994399.033132) can0 0C1#317B19A832D52754
(1645994399.033490) can0 199#0FFF0FFFF00100FF
(1645994399.033556) can0 0C5#328F9B1B3167C0A2
(1645994399.033886) can0 0F1#00030040
(1645994399.033934) can0 184#000000000000
(1645994399.034309) can0 19D#0000000000158F16
(1645994399.034531) can0 1C7#06E4391C00003F
(1645994399.034709) can0 1F5#4404000400000100
(1645994399.034899) can0 1CD#0000000000
(1645994399.035123) can0 1E5#46FFAAE000005301
(1645994399.035374) can0 1E9#0FF7000C000B0000
(1645994399.037999) can0 0C9#80163C19384008
(1645994399.038281) can0 191#07CC07CC07CC4040
(1645994399.038526) can0 1A1#0020400000003F
(1645994399.038701) can0 1C3#07CC07C000004000
(1645994399.042261) can0 0C1#01853E1702DF4BC8
(1645994399.042507) can0 0C5#0296BCAE016EE224
(1645994399.042893) can0 1E5#46FFAA8000005601
(1645994399.043436) can0 0F1#1C030040
(1645994399.044930) can0 334#0000
(1645994399.045855) can0 0F9#00B4400AAE67EE1F
(1645994399.046181) can0 199#4FFF0FFFF00000FF
(1645994399.046359) can0 1E1#00FD130060
(1645994399.050255) can0 0C9#80165D1C384008
(1645994399.050633) can0 191#07CB07CB07CC4040
(1645994399.051291) can0 0C1#118E5EDF12E86C99
(1645994399.051525) can0 0C5#129DDE3211760881
(1645994399.051748) can0 184#000100000000
(1645994399.051973) can0 1C7#06E4791B00003F
(1645994399.052181) can0 1CD#0000000000
(1645994399.052433) can0 1E5#46FFAAA000005501
(1645994399.052680) can0 1E9#0FF6000C00070000
(1645994399.052833) can0 2F9#7301000000
(1645994399.053007) can0 348#0B040B00
(1645994399.053206) can0 34A#0AF70AF6
(1645994399.053476) can0 0F1#28030040
(1645994399.056105) can0 1F3#0000
(1645994399.058531) can0 0F9#00B4400AAE67EE1F
(1645994399.058868) can0 199#8FFF0FFFEFFF00FF
(1645994399.059095) can0 19D#40003FFF00157216
(1645994399.059427) can0 1F5#4404000400000100
(1645994399.059983) can0 0C1#2198833F22F29103
(1645994399.060237) can0 0C5#22A50489217D2A25
(1645994399.060526) can0 1E5#46FFAAC000005401
(1645994399.063056) can0 0C9#80165713374008
(1645994399.063306) can0 191#07CB07CB07CB3F3F
(1645994399.063556) can0 1A1#0020400000003E
(1645994399.063810) can0 1C3#07CB07C100003F00
(1645994399.063919) can0 0F1#34030040
(1645994399.064159) can0 2C3#081606A0074F
(1645994399.069081) can0 0C1#31A2A7A132FCB573
(1645994399.069330) can0 0C5#32AC261831844BAC
(1645994399.069556) can0 184#000200000000
(1645994399.069781) can0 1C7#06E4B91A00003F
(1645994399.070005) can0 1CD#0000000000
(1645994399.070230) can0 1E5#46FFAAE000005301
(1645994399.070525) can0 1E9#0FEF000C00050000
(1645994399.070907) can0 0F9#00B4400AB768151F
(1645994399.071178) can0 199#CFFF0FFFEFFE00FF
(1645994399.073341) can0 0F1#00030040
(1645994399.073707) can0 12A#4700000045773FFF
(1645994399.074880) can0 334#0000
(1645994399.075281) can0 0C9#80165716374008
(1645994399.075525) can0 191#07CC07CC07CB3F3F
(1645994399.076399) can0 134#00001000
(1645994399.078285) can0 0C1#01ACCC100306D9DE
(1645994399.078525) can0 1E1#0000100000
(1645994399.078716) can0 0C5#02B44C70018C7207
(1645994399.078947) can0 1F1#AE1600000800007A
(1645994399.079173) can0 1E5#46FFAA8000005601
(1645994399.080957) can0 3C9#0766000000000000
(1645994399.083106) can0 0F9#00B4400AB768151F
(1645994399.083431) can0 199#0FFF0FFFF00100FF
(1645994399.083609) can0 0F1#1C030040
(1645994399.083831) can0 19D#80003FFE00159816
(1645994399.084146) can0 1F5#4404000400000100
(1645994399.086080) can0 1F3#0000
(1645994399.087081) can0 0C1#11B5ECD1130FFA99
(1645994399.087330) can0 0C5#12BB6DFE119393A1
(1645994399.087556) can0 184#000300000000
(1645994399.087781) can0 1C7#06E4F91900003F
(1645994399.087958) can0 0C9#80166E19374008
(1645994399.088135) can0 1CD#0000000000
(1645994399.088432) can0 191#07CC07CC07CC3F3F
(1645994399.088646) can0 1E5#46FFAAA000005501
(1645994399.088884) can0 1A1#0020400000003E
(1645994399.089086) can0 1E9#0FF9000C00090000
(1645994399.089335) can0 1C3#07CC07BE00003F00
(1645994399.093305) can0 0F1#28030040
(1645994399.095924) can0 0F9#00B4400AAD683B1F
(1645994399.095963) can0 0C1#21BF114223191F03
(1645994399.096338) can0 199#4FFF0FFFF00000FF
(1645994399.096488) can0 0C5#22C28F99219AB51F
(1645994399.096749) can0 17D#04E8000078000100
(1645994399.096998) can0 17F#0000000000000000
(1645994399.097249) can0 1E5#46FFAAC000005401
(1645994399.098981) can0 2F9#7B01000000
(1645994399.099184) can0 348#0B030B02
(1645994399.099380) can0 34A#0AF40AF8
(1645994399.100286) can0 0C9#80167C1C374008
(1645994399.100526) can0 191#07CA07CA07CC3F3F
(1645994399.103435) can0 0F1#34030040
(1645994399.105183) can0 0C1#31C8321733223FCD
(1645994399.105282) can0 0C5#32C9B12631A1D6BA
(1645994399.105557) can0 184#000000000000
(1645994399.105784) can0 1C7#06E4391C00003F
(1645994399.105984) can0 1CD#0000000000
(1645994399.106161) can0 1E1#00FF110020
(1645994399.106414) can0 1E5#46FFAAE000005301
(1645994399.106659) can0 1E9#0000000C00090000
(1645994399.106835) can0 334#0000
(1645994399.108212) can0 0F9#00B4400AAD683B1F
(1645994399.108508) can0 199#8FFF0FFFEFFF00FF
(1645994399.108808) can0 19D#C0003FFD00157E16
(1645994399.109155) can0 1F5#4404000400000100
(1645994399.112884) can0 0C9#80167B13374008
(1645994399.113134) can0 191#07CA07CA07CC3F3F
(1645994399.113356) can0 1A1#0020400000003E
(1645994399.113606) can0 1C3#07CA07BF00003F00
(1645994399.113832) can0 2C3#081806A0074D
(1645994399.114007) can0 0F1#00030040
(1645994399.114231) can0 3C1#0765E70000000000
(1645994399.114478) can0 0C1#01D25683032C6433
(1645994399.114674) can0 3D1#015C800021A00000
(1645994399.114899) can0 0C5#02D1D78201A9FD10
(1645994399.115173) can0 3E9#15950A4E157205EF
(1645994399.115407) can0 1E5#46FFAA8000005601
(1645994399.116581) can0 1F3#0000
(1645994399.120984) can0 0F9#00B4400AB1685D1F
(1645994399.121306) can0 199#CFFF0FFFEFFE00FF
(1645994399.123058) can0 0C1#11DC7AF4133688A7
(1645994399.123307) can0 0C5#12D8F91811B01E8B
(1645994399.123527) can0 0F1#1C030040
(1645994399.123706) can0 184#000100000000
(1645994399.123930) can0 1C7#06E4791B00003F
(1645994399.124128) can0 1CD#0000000000
(1645994399.124375) can0 1E5#46FFAAA000005501
(1645994399.124583) can0 1E9#0FFF000C00090000
(1645994399.125736) can0 0C9#80168516374008
(1645994399.125982) can0 191#07C707C707CA3F3F
(1645994399.127632) can0 3ED#8000000000FF0000
(1645994399.131957) can0 0C1#21E59BB9233FA961
(1645994399.132184) can0 0C5#22DF1A9B21B74027
(1645994399.132452) can0 1E5#46FFAAC000005401
(1645994399.133206) can0 0F9#00B4400AB1685D1F
(1645994399.133384) can0 0F1#28030040
(1645994399.133607) can0 199#0FFF0FFFF00100FF
(1645994399.133932) can0 19D#0000000000158A16
(1645994399.134234) can0 1F5#4404000400000100
(1645994399.134881) can0 334#0000
(1645994399.136161) can0 1E1#00FE120040
(1645994399.137930) can0 0C9#80169419374008
(1645994399.138256) can0 191#07C707C707C73E3E
(1645994399.138525) can0 1A1#0020400000003D
(1645994399.138748) can0 1C3#07C707BE00003E00
(1645994399.141057) can0 0C1#31EFC0253349CDC5
(1645994399.141268) can0 0C5#32E740ED31BF6683
(1645994399.141527) can0 184#000200000000
(1645994399.141749) can0 1C7#06E4B91A00003F
(1645994399.141949) can0 1CD#0000000000
(1645994399.142151) can0 1E5#46FFAAE000005301
(1645994399.142401) can0 1E9#0FFA000C00090000
(1645994399.143283) can0 0F1#34030040
(1645994399.145933) can0 0F9#00B4400AB268841F
(1645994399.146007) can0 1F3#0000
(1645994399.146307) can0 199#4FFF0FFFF00000FF
(1645994399.146931) can0 2F9#8001000000
(1645994399.147157) can0 348#0B050B03
(1645994399.147334) can0 34A#0AF90AF6
(1645994399.150260) can0 0C1#01F9E4820353F22D
(1645994399.150531) can0 0C9#80167E1C374008
(1645994399.150709) can0 0C5#02EE627E01C68804
(1645994399.150948) can0 191#07C507C507C73E3E
(1645994399.151173) can0 1E5#46FFAA8000005601
(1645994399.153482) can0 0F1#00030040
(1645994399.158137) can0 0F9#00B4400AB268841F
(1645994399.158611) can0 199#8FFF0FFFEFFF00FF
(1645994399.158757) can0 19D#40003FFF00158816
(1645994399.159126) can0 0C1#12020543135C1303
(1645994399.159261) can0 1F5#4404000400000100
(1645994399.159525) can0 0C5#12F5840A11CDA9A0
(1645994399.159748) can0 184#000300000000
(1645994399.159971) can0 1C7#06E4F91900003F
(1645994399.160205) can0 1CD#0000000000
(1645994399.160450) can0 1E5#46FFAAA000005501
(1645994399.160706) can0 1E9#0FF6000C00070000
(1645994399.162932) can0 0C9#80168913374008
(1645994399.163157) can0 191#07C507C507C53E3E
(1645994399.163383) can0 1A1#0020400000003D
(1645994399.163632) can0 1C3#07C507BE00003E00
(1645994399.163882) can0 2C3#081906A0074C
(1645994399.164063) can0 0F1#1C030040
(1645994399.164832) can0 334#0000
(1645994399.166526) can0 1E1#00FD130060
(1645994399.167932) can0 0C1#220C29AF2366376E
(1645994399.168183) can0 0C5#22FDAA6621D5CFF9
(1645994399.168431) can0 1E5#46FFAAC000005401
(1645994399.170681) can0 0F9#00B4400AB168A61F
(1645994399.171009) can0 199#CFFF0FFFEFFE00FF
(1645994399.173434) can0 0F1#28030040
(1645994399.173734) can0 12A#4700000045773FFF
(1645994399.175206) can0 0C9#80167F16364008
(1645994399.175527) can0 191#07C407C407C53D3D
(1645994399.176251) can0 134#00001000
(1645994399.177036) can0 0C1#32154A7133705BD6
(1645994399.177283) can0 0C5#3304CBFB31DCF176
(1645994399.177525) can0 184#000000000000
(1645994399.177724) can0 1C7#06E4391C00003F
(1645994399.177949) can0 1CD#0000000000
(1645994399.178174) can0 1E5#46FFAAE000005301
(1645994399.178375) can0 1F1#AE1600000800007A
(1645994399.178607) can0 1E9#0000000C00070000
(1645994399.178757) can0 1F3#0000
(1645994399.180933) can0 3C9#0766000000000000
(1645994399.183306) can0 0F9#00B4400AB168A61F
(1645994399.183526) can0 0F1#34030040
(1645994399.183707) can0 199#0FFF0FFFF00100FF
(1645994399.184023) can0 19D#80003FFE00158416
(1645994399.184352) can0 1F5#4404000400000100
(1645994399.186207) can0 0C1#021F6EDE03797C84
(1645994399.186526) can0 0C5#030CF25801E417C6
(1645994399.186725) can0 1E5#46FFAA8000005601
(1645994399.188058) can0 0C9#80167D19364008
(1645994399.188282) can0 191#07C407C407C43D3D
(1645994399.188526) can0 1A1#0020400000003C
(1645994399.188774) can0 1C3#07C407BF00003D00
(1645994399.193332) can0 0F1#00030040
(1645994399.193681) can0 1E1#0000100000
(1645994399.195265) can0 0C1#122993521383A0E1
(1645994399.195526) can0 0C5#131313E611EB395B
(1645994399.195723) can0 0F9#00B4400AB968CC1F
(1645994399.195975) can0 17D#04E8000078000100
(1645994399.196204) can0 199#4FFF0FFFF00000FF
(1645994399.196526) can0 17F#0000000000000000
(1645994399.196703) can0 184#000100000000
(1645994399.196923) can0 1C7#06E4791B00003F
(1645994399.197075) can0 1CD#0000000000
(1645994399.197326) can0 1E5#46FFAAA000005501
(1645994399.197583) can0 1E9#0FFF000C00070000
(1645994399.197831) can0 2F9#8B01000000
(1645994399.198008) can0 334#0000
(1645994399.198122) can0 348#0B030B06
(1645994399.198356) can0 34A#0AF50AF9
(1645994399.200310) can0 0C9#80167D1C364008
(1645994399.200605) can0 191#07C607C607C43D3D
(1645994399.203356) can0 0F1#1C030040
(1645994399.203556) can0 1F3#0000
(1645994399.203906) can0 0C1#2232B423238CC1B6
(1645994399.204159) can0 0C5#231A357A21F25AD5
(1645994399.204385) can0 1E5#46FFAAC000005401
(1645994399.208210) can0 0F9#00B4400AB968CC1F
(1645994399.208610) can0 199#8FFF0FFFEFFF00FF
(1645994399.208760) can0 19D#C0003FFD00159B16
(1645994399.209124) can0 1F5#4404000400000100
(1645994399.212786) can0 0C9#80167813364008
(1645994399.213116) can0 0C1#323CD88D3396E629
(1645994399.213207) can0 191#07C607C607C63D3D
(1645994399.213607) can0 0C5#3321570131F97C6E
(1645994399.213648) can0 1A1#0020400000003C
(1645994399.213874) can0 0F1#28030040
(1645994399.214074) can0 184#000200000000
(1645994399.214325) can0 1C3#07C607BD00003D00
(1645994399.214526) can0 1C7#06E4B91A00003F
(1645994399.214677) can0 2C3#081906A0074C
(1645994399.214922) can0 1CD#0000000000
(1645994399.215173) can0 3C1#0765E70000000000
(1645994399.215351) can0 1E5#46FFAAE000005301
(1645994399.215608) can0 3D1#015B8000219A0000
(1645994399.215833) can0 1E9#0FF8000C00070000
(1645994399.216083) can0 3E9#159D0A6215710601
(1645994399.216357) can0 3F9#00190D525A052C27
(1645994399.216535) can0 3FB#0200
(1645994399.216715) can0 4C1#15C6893A6D800000
(1645994399.216975) can0 4D1#00003C02127900C8
(1645994399.221084) can0 0F9#00B4400AAA68EE1F
(1645994399.221406) can0 199#CFFF0FFFEFFE00FF
(1645994399.222208) can0 0C1#0246FCFD03A00A93
(1645994399.222526) can0 0C5#03297D520201A2C7
(1645994399.222703) can0 1E5#46FFAA8000005601
(1645994399.223226) can0 0F1#34030040
(1645994399.223529) can0 1E1#00FF110020
(1645994399.224833) can0 334#0000
(1645994399.225202) can0 0C9#80167A16364008
(1645994399.225522) can0 191#07C707C707C63D3D
(1645994399.227628) can0 3ED#8000000000FF0000
(1645994399.231008) can0 0C1#124F1DBB13A92B4A
(1645994399.231260) can0 0C5#13309EDE1208C44A
(1645994399.231627) can0 184#000300000000
(1645994399.231649) can0 1C7#06E4F91900003F
(1645994399.231931) can0 1CD#0000000000
(1645994399.232154) can0 1E5#46FFAAA000005501
(1645994399.232424) can0 1E9#0FF6000C00050000
(1645994399.233132) can0 0F9#00B4400AAA68EE1F
(1645994399.233311) can0 0F1#00030040
(1645994399.233558) can0 199#0FFF0FFFF00100FF
(1645994399.233637) can0 1F3#0000
(1645994399.233884) can0 19D#0000000000157016
(1645994399.234258) can0 1F5#4404000400000100
(1645994399.237927) can0 0C9#80164F19354008
(1645994399.238183) can0 191#07C707C707C63C3C
(1645994399.238407) can0 1A1#0020400000003C
(1645994399.238658) can0 1C3#07C707BE00003C00
(1645994399.239882) can0 0C1#2259421D23B34FB3
(1645994399.240135) can0 0C5#2337C065220FE5E7
(1645994399.240381) can0 1E5#46FFAAC000005401
(1645994399.242910) can0 2F9#9301000000
(1645994399.243132) can0 348#0B070B02
(1645994399.243234) can0 0F1#1C030040
(1645994399.243515) can0 34A#0AF90AF6
(1645994399.245981) can0 0F9#00B4400AB569151F
(1645994399.246283) can0 199#4FFF0FFFF00000FF
(1645994399.249007) can0 0C1#3263668633BD7425
(1645994399.249232) can0 0C5#333FE6BF32170C3E
(1645994399.249527) can0 184#000000000000
(1645994399.249703) can0 1C7#06E4391C00003F
(1645994399.249900) can0 1CD#0000000000
(1645994399.250149) can0 1E5#46FFAAE000005301
(1645994399.250403) can0 1E9#0FF5000C00030000
(1645994399.251058) can0 0C9#8016411C354008
(1645994399.251308) can0 191#07C707C707C73B3B
(1645994399.253534) can0 0F1#28030040
(1645994399.254782) can0 334#0000
(1645994399.255931) can0 1E1#00FE120040
(1645994399.258182) can0 0F9#00B4400AB569151F
(1645994399.258408) can0 0C1#026D8AF203C7988B
(1645994399.258763) can0 199#8FFF0FFFEFFF00FF
(1645994399.258834) can0 0C5#03460854021E2DBB
(1645994399.259133) can0 19D#40003FFF00159816
(1645994399.259357) can0 1E5#46FFAA8000005601
(1645994399.259607) can0 1F5#4404000400000100
(1645994399.262807) can0 0C9#80163313344008
(1645994399.263147) can0 191#07C707C707C73A3A
(1645994399.263232) can0 1A1#0020400000003B
(1645994399.263526) can0 1C3#07C707BD00003A00
(1645994399.263749) can0 0F1#34030040
(1645994399.263951) can0 2C3#081806A0074D
(1645994399.266181) can0 1F3#0000
(1645994399.266984) can0 0C1#1276ABBE13D0B957
(1645994399.267232) can0 0C5#134D29DE12254F50
(1645994399.267526) can0 184#000100000000
(1645994399.267705) can0 1C7#06E4791B00003F
(1645994399.267899) can0 1CD#0000000000
(1645994399.268126) can0 1E5#46FFAAA000005501
(1645994399.268362) can0 1E9#0FFF000C00050000
(1645994399.270782) can0 0F9#00B4400AB1693B1F
(1645994399.271108) can0 199#CFFF0FFFEFFE00FF
(1645994399.273437) can0 0F1#00030040
(1645994399.275257) can0 0C9#80162C16344008
(1645994399.275526) can0 191#07C807C807C73A3A
(1645994399.275874) can0 0C1#2280D02C23DADDB8
(1645994399.276099) can0 0C5#23555036222D759D
(1645994399.276351) can0 12A#4700000045773FFF
(1645994399.276582) can0 1E5#46FFAAC000005401
(1645994399.278208) can0 134#00001000
(1645994399.278526) can0 138#0000000002
(1645994399.280832) can0 1F1#AE1600000800007A
(1645994399.283107) can0 0F9#00B4400AB1693B1F
(1645994399.283289) can0 0F1#1C030040
(1645994399.283662) can0 199#0FFF0FFFF00100FF
(1645994399.283733) can0 1E1#00FD130060
(1645994399.284007) can0 19D#80003FFE00158416
(1645994399.284336) can0 1F5#4404000400000100
(1645994399.284981) can0 0C1#3289F0F633E3FE67
(1645994399.285231) can0 0C5#335C71C632349711
(1645994399.285525) can0 184#000200000000
(1645994399.285703) can0 1C7#06E4B91A00003F
(1645994399.285869) can0 1CD#0000000000
(1645994399.286124) can0 3C9#0766000000000000
(1645994399.286351) can0 1E5#46FFAAE000005301
(1645994399.286607) can0 1E9#0FFE000C00050000
(1645994399.286709) can0 334#0000
(1645994399.287830) can0 0C9#80162719344008
(1645994399.288082) can0 191#07C807C807C83A3A
(1645994399.288308) can0 1A1#0020400000003A
(1645994399.288557) can0 1C3#07C807BA00003A00
(1645994399.288932) can0 3F1#00CF5A18FFFF006C
(1645994399.290860) can0 2F9#9801000000
(1645994399.291082) can0 348#0B020B05
(1645994399.291273) can0 4E1#4231323835313336
(1645994399.291527) can0 34A#0AF70AFA
(1645994399.293259) can0 0F1#28030040
(1645994399.294178) can0 0C1#0293156603ED22D5
(1645994399.294526) can0 0C5#0363934C023CBD5D
(1645994399.294703) can0 17D#04E8000078000100
(1645994399.294973) can0 17F#0000000000000000
(1645994399.295196) can0 1E5#46FFAA8000005601
(1645994399.295706) can0 0F9#00B4400AB1695D1F
(1645994399.295885) can0 1F3#0000
(1645994399.296112) can0 199#4FFF0FFFF00000FF
(1645994399.298107) can0 4E9#E140555DA6
(1645994399.298406) can0 514#4731574735454B34
(1645994399.300285) can0 0C9#8016281C344008
(1645994399.300526) can0 191#07C707C707C83A3A
(1645994399.301074) can0 52A#24243F3C3B3E02FF
(1645994399.302982) can0 0C1#129C362E13F74748
(1645994399.303206) can0 0C5#136BB9A41243DEF4
(1645994399.303433) can0 184#000300000000
(1645994399.303613) can0 0F1#34030040
(1645994399.303831) can0 1C7#06E4F91900003F
(1645994399.304033) can0 1CD#0000000000
(1645994399.304234) can0 1E5#46FFAAA000005501
(1645994399.304478) can0 1E9#0FF7000C00050000
(1645994399.305887) can0 771#00400000000000
(1645994399.308160) can0 0F9#00B4400AB1695D1F
(1645994399.308526) can0 199#8FFF0FFFEFFF00FF
(1645994399.308827) can0 19D#C0003FFD00158416
(1645994399.309112) can0 1F5#4404000400000100
(1645994399.311858) can0 0C1#22A65A9B20006817
(1645994399.312107) can0 0C5#2372DB37224A0074
(1645994399.312333) can0 1E5#46FFAAC000005401
(1645994399.312732) can0 0C9#80162813334008
(1645994399.312982) can0 191#07C707C707C73939
(1645994399.313206) can0 1A1#0020400000003A
(1645994399.313527) can0 1C3#07C707BA00003900
(1645994399.313575) can0 0F1#00030040
(1645994399.313825) can0 2C3#081506A0074F
(1645994399.314078) can0 3C1#0765E70000000000
(1645994399.314277) can0 3D1#015A800021960000
(1645994399.314508) can0 3E9#15A30A7515710614
(1645994399.314783) can0 334#0000
(1645994399.316560) can0 1E1#0000100000
(1645994399.320529) can0 0F9#00B4400AB269841F
(1645994399.320824) can0 199#CFFF0FFFEFFE00FF
(1645994399.321049) can0 0C1#32B07F02300A8C84
(1645994399.321300) can0 0C5#3379FCBD32512210
(1645994399.321526) can0 184#000000000000
(1645994399.321749) can0 1C7#06E4391C00003F
(1645994399.321950) can0 1CD#0000000000
(1645994399.322152) can0 1E5#46FFAAE000005301
(1645994399.322482) can0 1E9#0FF4000C00070000
(1645994399.323129) can0 0F1#1C030040
(1645994399.323400) can0 1F3#0000
(1645994399.325359) can0 0C9#8015F216334008
(1645994399.325607) can0 191#07C607C607C73939
(1645994399.327635) can0 3ED#8000000000FF0000
(1645994399.330132) can0 0C1#02BAA3680014B0F7
(1645994399.330383) can0 0C5#038123160259486F
(1645994399.330634) can0 1E5#46FFAA8000005601
(1645994399.333058) can0 0F9#00B4400AB269841F
(1645994399.333238) can0 0F1#28030040
(1645994399.333527) can0 199#0FFF0FFFF00100FF
(1645994399.333800) can0 19D#0000000000159016
(1645994399.334095) can0 1F5#4404000400000100
(1645994399.337810) can0 0C9#8015EF19334008
(1645994399.338059) can0 191#07C607C607C73939
(1645994399.338282) can0 1A1#0020400000003A
(1645994399.338526) can0 1C3#07C607B900003900
(1645994399.339080) can0 0C1#12C3C430101DD1B3
(1645994399.339301) can0 0C5#138844A7126069EE
(1645994399.339584) can0 184#000100000000
(1645994399.339775) can0 1C7#06E4791B00003F
(1645994399.340011) can0 1CD#0000000000
(1645994399.340262) can0 1E5#46FFAAA000005501
(1645994399.340528) can0 1E9#0FF4000C00030000
(1645994399.340727) can0 2F9#A001000000
(1645994399.340927) can0 348#0B050B00
(1645994399.341107) can0 34A#0AF70AF6
(1645994399.343307) can0 0F1#34030040
(1645994399.344734) can0 334#0000
(1645994399.345810) can0 0F9#00B4400AAE69A61F
(1645994399.346032) can0 1E1#00FF110020
(1645994399.346283) can0 199#4FFF0FFFF00000FF
(1645994399.347834) can0 0C1#22CDE89D2027F622
(1645994399.348057) can0 0C5#238F662F22678B86
(1645994399.348307) can0 1E5#46FFAAC000005401
(1645994399.350528) can0 0C9#8015E81C324008
(1645994399.350726) can0 191#07C607C607C63838
(1645994399.353260) can0 0F1#00030040
(1645994399.353527) can0 1F3#0000
(1645994399.356934) can0 0C1#32D6096A303016FC
(1645994399.357184) can0 0C5#33978C89326FB1D7
(1645994399.357519) can0 184#000200000000
(1645994399.357583) can0 1C7#06E4B91A00003F
(1645994399.357832) can0 1CD#0000000000
(1645994399.358082) can0 1E5#46FFAAE000005301
(1645994399.358284) can0 0F9#00B4400AAE69A61F
(1645994399.358509) can0 1E9#0FFA000C00070000
(1645994399.358763) can0 199#8FFF0FFFEFFF00FF
(1645994399.359111) can0 19D#40003FFF00157216
(1645994399.359430) can0 1F5#4404000400000100
(1645994399.362862) can0 0C9#8015D813324008
(1645994399.363084) can0 191#07C607C607C63838
(1645994399.363357) can0 1A1#00204000000039
(1645994399.363602) can0 1C3#07C607B900003800
(1645994399.363758) can0 0F1#1C030040
(1645994399.363952) can0 2C3#081406A00751
(1645994399.366130) can0 0C1#02E02DE0003A3B5F
(1645994399.366353) can0 0C5#039EAE220276D350
(1645994399.366559) can0 1E5#46FFAA8000005601
(1645994399.370563) can0 0F9#00B4400AB469CC1F
(1645994399.370986) can0 199#CFFF0FFFEFFE00FF
(1645994399.373185) can0 0F1#28030040
(1645994399.374959) can0 0C1#12EA525610445FC8
(1645994399.375183) can0 0C5#13A5CFAF127DF4E4
(1645994399.375409) can0 0C9#8015D816314008
(1645994399.375608) can0 184#000300000000
(1645994399.375859) can0 191#07C707C707C63535
(1645994399.376082) can0 1C7#06E4F91900003F
(1645994399.376308) can0 12A#4700000045773FFF
(1645994399.376479) can0 1CD#0000000000
(1645994399.376701) can0 1E5#46FFAAA000005501
(1645994399.376952) can0 1E9#0FF6000C00070000
(1645994399.377102) can0 334#0000
(1645994399.378062) can0 134#00001000
(1645994399.380743) can0 1E1#00FE120040
(1645994399.383156) can0 0F9#00B4400AB469CC1F
(1645994399.383334) can0 0F1#34030040
(1645994399.383544) can0 199#0FFF0FFFF00100FF
(1645994399.383807) can0 1F1#AE1600000800007A
(1645994399.384032) can0 0C1#22F3731B204D808A
(1645994399.384286) can0 19D#80003FFE00159216
(1645994399.384516) can0 0C5#23ACF14322851B37
(1645994399.384714) can0 1F5#4404000400000100
(1645994399.384934) can0 1E5#46FFAAC000005401
(1645994399.385934) can0 1F3#0000
(1645994399.386784) can0 2F9#A801000000
(1645994399.387030) can0 348#0B020B01
(1645994399.387209) can0 34A#0AF70AF9
(1645994399.387756) can0 0C9#8015EA19314008
(1645994399.388003) can0 191#07C707C707C73434
(1645994399.388228) can0 1A1#00204000000038
(1645994399.388523) can0 1C3#07C707B800003400
(1645994399.388770) can0 3C9#0766000000000000
(1645994399.393083) can0 0C1#32FD97893057A4F6
(1645994399.393261) can0 0F1#00030040
(1645994399.393531) can0 0C5#33B4179C328C3CB6
(1645994399.393749) can0 17D#04E8000078000100
(1645994399.393953) can0 17F#0000000000000000
(1645994399.394225) can0 184#000000000000
(1645994399.394519) can0 1C7#06E4391C00003F
(1645994399.394613) can0 1CD#0000000000
(1645994399.394908) can0 1E5#46FFAAE000005301
(1645994399.395158) can0 1E9#0FF2000C00070000
(1645994399.395708) can0 0F9#00B4400AAA69EE1E
(1645994399.396033) can0 199#4FFF0FFFF00000FF
(1645994399.400260) can0 0C9#8015DF1C304008
(1645994399.400528) can0 191#07C707C707C73333
(1645994399.402107) can0 0C1#0307BBFB0061C962
(1645994399.402332) can0 0C5#03BB391B0294630F
(1645994399.402582) can0 1E5#46FFAA8000005601
(1645994399.403258) can0 0F1#1C030040
(1645994399.404735) can0 334#0000
(1645994399.405807) can0 1E1#00FD130060
(1645994399.408107) can0 0F9#00B4400AAA69EE1E
(1645994399.408401) can0 199#8FFF0FFFEFFF00FF
(1645994399.408733) can0 19D#C0003FFD00157C16
(1645994399.409058) can0 1F5#4404000400000100
(1645994399.410904) can0 0C1#1310DCC2106AEA42
(1645994399.411152) can0 0C5#13C35F72129B84AF
(1645994399.411378) can0 184#000100000000
(1645994399.411604) can0 1C7#06E4791B00003F
(1645994399.411804) can0 1CD#0000000000
(1645994399.412055) can0 1E5#46FFAAA000005501
(1645994399.412304) can0 1E9#0FF4000C00050000
(1645994399.412710) can0 0C9#8015DF13304008
(1645994399.412934) can0 191#07C707C707C73333
(1645994399.413184) can0 1A1#00204000000038
(1645994399.413524) can0 1C3#07C707AF00003300
(1645994399.413575) can0 0F1#28030040
(1645994399.413825) can0 2C3#081306A00752
(1645994399.414072) can0 3C1#0765E70000000000
(1645994399.414321) can0 3D1#0158800021870000
(1645994399.414553) can0 3E9#15950A8815720627
(1645994399.416506) can0 1F3#0000
(1645994399.419783) can0 0C1#231A012D20740EB9
(1645994399.420037) can0 0C5#23CA810722A2A632
(1645994399.420289) can0 1E5#46FFAAC000005401
(1645994399.420610) can0 0F9#00B4400AB26A151E
(1645994399.420983) can0 199#CFFF0FFFEFFE00FF
(1645994399.423085) can0 0F1#34030040
(1645994399.425206) can0 0C9#8015EF16304008
(1645994399.425309) can0 191#07B607B607C73232
(1645994399.427623) can0 3ED#8000000000FF0000
(1645994399.428905) can0 0C1#332321F2307E3329
(1645994399.429133) can0 0C5#33D1A29532A9C7CA
(1645994399.429358) can0 184#000200000000
(1645994399.429583) can0 1C7#06E4B91A00003F
(1645994399.429783) can0 1CD#0000000000
(1645994399.430058) can0 1E5#46FFAAE000005301
(1645994399.430312) can0 1E9#0FF6000C00010000
(1645994399.433115) can0 0F9#00B4400AB26A151E
(1645994399.433284) can0 0F1#00030040
(1645994399.433509) can0 199#0FFF0FFFF00100FF
(1645994399.433838) can0 19D#0000000000158F16
(1645994399.434280) can0 1F5#4404000400000100
(1645994399.434527) can0 4C9#4062253400000000
(1645994399.434828) can0 77F#0000000000000000
(1645994399.435024) can0 2F9#B001000000
(1645994399.435134) can0 334#0000
(1645994399.435309) can0 348#0B030B00
(1645994399.435555) can0 34A#0AF50AF8
(1645994399.435904) can0 1E1#0000100000
(1645994399.437809) can0 0C9#8015ED19304008
(1645994399.438058) can0 191#07B607B607C73232
(1645994399.438282) can0 0C1#032D466300885798
(1645994399.438527) can0 1A1#00204000000038
(1645994399.438725) can0 0C5#03D9C8F602B1EE20
(1645994399.438927) can0 1C3#07B607AD00003200
(1645994399.439151) can0 1E5#46FFAA8000005601
(1645994399.443184) can0 0F1#1C020040
(1645994399.443377) can0 1F3#0000
(1645994399.445739) can0 0F9#00B4400AAF6A371E
(1645994399.446107) can0 199#4FFF0FFFF00000FF
(1645994399.446932) can0 0C1#13376AD21091784F
(1645994399.447163) can0 0C5#13E0EA8E12B80F9C
(1645994399.447382) can0 184#000300000000
(1645994399.447609) can0 1C7#06E4F91900003F
(1645994399.447809) can0 1CD#0000000000
(1645994399.448058) can0 1E5#46FFAAA000005501
(1645994399.448310) can0 1E9#0FFD000C00050000
(1645994399.450256) can0 0C9#8015FD1C304008
(1645994399.450478) can0 191#07B907B907B63232
(1645994399.453164) can0 0F1#28020040
(1645994399.455783) can0 0C1#23408BAC209A991D
(1645994399.456034) can0 0C5#23E70C1F22BF3136
(1645994399.456261) can0 1E5#46FFAAC000005401
(1645994399.458069) can0 0F9#00B4400AAF6A371E
(1645994399.458434) can0 199#8FFF0FFFEFFF00FF
(1645994399.458734) can0 19D#40003FFF00157916
(1645994399.459025) can0 1F5#4404000400000100
(1645994399.462708) can0 0C9#8015FB13304008
(1645994399.463003) can0 191#07B907B907B93232
(1645994399.463232) can0 1A1#00204000000037
(1645994399.463528) can0 1C3#07B907B000003200
(1645994399.463602) can0 0F1#34030040
(1645994399.463850) can0 2C3#081B06A00752
(1645994399.464076) can0 3F9#001920535A052C27
(1645994399.464202) can0 3FB#0200
(1645994399.464883) can0 0C1#334AB02230A4BD8B
(1645994399.465133) can0 0C5#33EE2DB632C7578F
(1645994399.465353) can0 184#000000000000
(1645994399.465535) can0 1C7#06E4391C00003F
(1645994399.465759) can0 1CD#0000000000
(1645994399.465984) can0 1E5#46FFAAE000005301
(1645994399.466308) can0 1E9#0FFA000C00050000
(1645994399.466527) can0 1E1#00FF110020
(1645994399.466575) can0 334#0000
(1645994399.470782) can0 0F9#00B4400AB16A5D1E
(1645994399.471109) can0 199#CFFF0FFFEFFE00FF
(1645994399.473212) can0 0F1#00030040
(1645994399.473529) can0 12A#4700000045773FFF
(1645994399.474077) can0 0C1#0354D48F00AEE1FF
(1645994399.474301) can0 0C5#03F6540E02CE790C
(1645994399.474558) can0 1E5#46FFAA8000005601
(1645994399.475233) can0 0C9#80160F16304008
(1645994399.475528) can0 191#07B407B407B93232
(1645994399.476100) can0 134#00001000
(1645994399.478234) can0 1F1#AE1600000800007A
(1645994399.478531) can0 1F3#0000
(1645994399.480709) can0 3C9#0766000000000000
(1645994399.483033) can0 0C1#135DF55A10B702BD
(1645994399.483217) can0 0F1#1C030040
(1645994399.483434) can0 0C5#13FD759512D59AA2
(1645994399.483684) can0 0F9#00B4400AB16A5D1E
(1645994399.483883) can0 184#000100000000
(1645994399.484136) can0 199#0FFF0FFFF00100FF
(1645994399.484338) can0 1C7#06E4791B00003F
(1645994399.484535) can0 19D#80003FFE00158616
(1645994399.484734) can0 1CD#0000000000
(1645994399.484985) can0 1F5#4404000400000100
(1645994399.485209) can0 1E5#46FFAAA000005501
(1645994399.485528) can0 1E9#0FF7000C00050000
(1645994399.485707) can0 2F9#B801000000
(1645994399.485859) can0 348#0B030AFF
(1645994399.486072) can0 34A#0AF70AF8
(1645994399.487731) can0 0C9#80160619304008
(1645994399.487978) can0 191#07B407B407B43232
(1645994399.488230) can0 1A1#00204000000037
(1645994399.488523) can0 1C3#07B407B100003200
(1645994399.491806) can0 0C1#236719C420C1272A
(1645994399.492053) can0 0C5#2004972422DDC0FA
(1645994399.492328) can0 17D#04E8000078000100
(1645994399.492535) can0 17F#0000000000000000
(1645994399.492784) can0 1E5#46FFAAC000005401
(1645994399.492985) can0 500#00000000
(1645994399.493178) can0 0F1#28020040
(1645994399.493428) can0 773#00280000000000
(1645994399.494784) can0 334#0000
(1645994399.495629) can0 0F9#00B4400AB16A7F1E
(1645994399.495802) can0 1E1#00FE120040
(1645994399.496053) can0 199#4FFF0FFFF00000FF
(1645994399.500109) can0 0C9#8016071C304008
(1645994399.500353) can0 191#07B107B107B43131
(1645994399.500856) can0 0C1#33713E2830CB4B9C
(1645994399.501103) can0 0C5#300CBD7C32E4E280
(1645994399.501328) can0 184#000200000000
(1645994399.501553) can0 1C7#06E4B91A00003F
(1645994399.501710) can0 1CD#0000000000
(1645994399.501960) can0 1E5#46FFAAE000005301
(1645994399.502254) can0 1E9#0FF1000C00070000
(1645994399.503180) can0 0F1#34020040
(1645994399.505730) can0 1F3#0000
(1645994399.508305) can0 0F9#00B4400AB16A7F1E
(1645994399.508604) can0 199#8FFF0FFFEFFF00FF
(1645994399.508903) can0 19D#C0003FFD00159216
(1645994399.509228) can0 1F5#4404000400000100
(1645994399.510040) can0 0C1#037B629200D57010
(1645994399.510289) can0 0C5#0013DF0802EC08DF
(1645994399.510553) can0 1E5#46FFAA8000005601
(1645994399.513306) can0 0C9#80160813304008
(1645994399.513523) can0 0F1#00030040
(1645994399.513696) can0 191#07B107B107B13131
(1645994399.513919) can0 1A1#00204000000037
(1645994399.514171) can0 1C3#07B107B100003100
(1645994399.514401) can0 2C3#081D06A00753
(1645994399.514584) can0 3C1#0765E70000000000
(1645994399.514878) can0 3D1#0158800021840000
(1645994399.515123) can0 3E9#15970A9B156F063A
(1645994399.518847) can0 0C1#1384835E10DE90E8
(1645994399.519083) can0 0C5#101A009F12F32A80
(1645994399.519282) can0 184#000300000000
(1645994399.519546) can0 1C7#06E4F91900003F
(1645994399.519774) can0 1CD#0000000000
(1645994399.519986) can0 1E5#46FFAAA000005501
(1645994399.520248) can0 1E9#0FF1000C00070000
(1645994399.521094) can0 0F9#00B4400AB16AA61E
(1645994399.521424) can0 199#CFFF0FFFEFFE00FF
(1645994399.523047) can0 0F1#1C030040
(1645994399.523371) can0 1E1#00FD130060
(1645994399.524618) can0 334#0000
(1645994399.525328) can0 0C9#801608162F4008
(1645994399.525543) can0 191#07B207B207B13030
(1645994399.526118) can0 3F1#00CF5A18FFFF006C
(1645994399.527622) can0 3ED#8000000000FF0000
(1645994399.527807) can0 0C1#238DA42720E8B554
(1645994399.528090) can0 0C5#202226FF22FA4C01
(1645994399.528346) can0 1E5#46FFAAC000005401
(1645994399.530770) can0 2F9#C001000000
(1645994399.531120) can0 348#0B030B01
(1645994399.531124) can0 34A#0AF50AF6
(1645994399.533253) can0 0F9#00B4400AB16AA61E
(1645994399.533257) can0 0F1#28030040
(1645994399.533700) can0 199#0FFF0FFFF00100FF
(1645994399.533912) can0 19D#0000000000157616
(1645994399.534372) can0 1F5#4404000400000100
(1645994399.535767) can0 1F3#0000
(1645994399.536948) can0 0C1#3397C89830F1D609
(1645994399.537098) can0 0C5#3029488B33016D9A
(1645994399.537411) can0 184#000000000000
(1645994399.537596) can0 1C7#06E4391C00003F
(1645994399.537819) can0 0C9#8015EC192F4008
(1645994399.537995) can0 1CD#0000000000
(1645994399.538270) can0 191#07B207B207B13030
(1645994399.538502) can0 1E5#46FFAAE000005301
(1645994399.538663) can0 1A1#00204000000036
(1645994399.538997) can0 1E9#0000000C00070000
(1645994399.539165) can0 1C3#07B207AE00003000
(1645994399.543212) can0 0F1#34030040
(1645994399.545653) can0 0F9#00B4400AB36ACC1E
(1645994399.546170) can0 199#4FFF0FFFF00000FF
(1645994399.546174) can0 0C1#03A1ED0D00FBFA6F
(1645994399.546511) can0 0C5#00316EE7030993F0
(1645994399.546683) can0 1E5#46FFAA8000005601
(1645994399.550315) can0 0C9#8015F71C2F4008
(1645994399.550697) can0 191#07B107B107B23030
(1645994399.553246) can0 0F1#00030040
(1645994399.554971) can0 0C1#13AA0DDA11051EDE
(1645994399.555142) can0 0C5#1038907D1310B56E
(1645994399.555373) can0 184#000100000000
(1645994399.555639) can0 1C7#06E4791B00003F
(1645994399.555777) can0 1CD#0000000000
(1645994399.555987) can0 1E1#0000100000
(1645994399.556251) can0 1E5#46FFAAA000005501
(1645994399.556519) can0 1E9#0FF8000C00070000
(1645994399.556531) can0 334#0000
(1645994399.558356) can0 0F9#00B4400AB36ACC1E
(1645994399.558598) can0 199#8FFF0FFFEFFF00FF
(1645994399.558964) can0 19D#40003FFF00159116
(1645994399.559285) can0 1F5#4404000400000100
(1645994399.563640) can0 0C9#8015F9132F4008
(1645994399.563642) can0 0F1#1C030040
(1645994399.563916) can0 0C1#23B4324C210E3FBD
(1645994399.564326) can0 191#07B107B107B13030
(1645994399.564330) can0 0C5#203FB2052317D708
(1645994399.564751) can0 1A1#00204000000037
(1645994399.564755) can0 1E5#46FFAAC000005401
(1645994399.565227) can0 1C3#07B107AB00003000
(1645994399.565231) can0 2C3#081D06A00753
(1645994399.566006) can0 1F3#0000
(1645994399.571152) can0 0F9#00B4400AAB6AEE1E
(1645994399.571357) can0 199#CFFF0FFFEFFE00FF
(1645994399.573035) can0 0C1#33BE56BD3118642F
(1645994399.573039) can0 0C5#3046D397331FFD60
(1645994399.573467) can0 0F1#28030040
(1645994399.573471) can0 184#000200000000
(1645994399.573887) can0 1C7#06E4B91A00003F
(1645994399.573891) can0 1CD#0000000000
(1645994399.574355) can0 1E5#46FFAAE000005301
(1645994399.574359) can0 1E9#0FF2000C00070000
(1645994399.575572) can0 0C9#8015EA162F4008
(1645994399.575575) can0 191#07AF07B007B13030
(1645994399.576281) can0 12A#4700000045773FFF
(1645994399.578197) can0 134#00001000
(1645994399.578630) can0 1F1#AE1600000800007A
(1645994399.578656) can0 2F9#C801000000
(1645994399.578914) can0 348#0B030AFF
(1645994399.579192) can0 34A#0AF70AF8
(1645994399.580723) can0 3C9#0766000000000000
(1645994399.582095) can0 0C1#03C87B2A0122889D
(1645994399.582271) can0 0C5#004EF9E803261EE3
(1645994399.582616) can0 1E5#46FFAA8000005601
(1645994399.583170) can0 0F9#00B4400AAB6AEE1E
(1645994399.583200) can0 0F1#34030040
(1645994399.583615) can0 199#0FFF0FFFF00100FF
(1645994399.583894) can0 19D#80003FFE00157016
(1645994399.584190) can0 1F5#4404000400000100
(1645994399.584693) can0 334#0000
(1645994399.585794) can0 1E1#00FF110020
(1645994399.587674) can0 0C9#8015F1192F4008
(1645994399.587919) can0 191#07AF07B007B03030
(1645994399.588142) can0 1A1#00204000000036
(1645994399.588392) can0 1C3#07AF07AD00003000
(1645994399.591046) can0 0C1#13D19BEE112BA960
(1645994399.591295) can0 0C5#10551B6D132D4084
(1645994399.591582) can0 17D#04E8000078000100
(1645994399.591818) can0 17F#0000000000000000
(1645994399.592024) can0 184#000300000000
(1645994399.592256) can0 1C7#06E4F91900003F
(1645994399.592478) can0 1CD#0000000000
(1645994399.592710) can0 1E5#46FFAAA000005501
(1645994399.592987) can0 1E9#0FF6000C00050000
(1645994399.593081) can0 0F1#00030040
(1645994399.595750) can0 0F9#00B4400AB26B151E
(1645994399.595783) can0 1F3#0000
(1645994399.596206) can0 199#4FFF0FFFF00000FF
(1645994399.599704) can0 0C1#23DBC05E2135CDD4
(1645994399.599950) can0 0C5#205C3D07233566E1
(1645994399.600159) can0 0C9#8015E91C2F4008
(1645994399.600403) can0 1E5#46FFAAC000005401
(1645994399.600632) can0 191#07AD07AD07B02F2F
(1645994399.603030) can0 0F1#1C030040
(1645994399.607954) can0 0F9#00B4400AB26B151E
(1645994399.608291) can0 199#8FFF0FFFEFFF00FF
(1645994399.608589) can0 19D#C0003FFD00159216
(1645994399.608831) can0 0C1#33E4E131313EEEA9
(1645994399.609030) can0 1F5#4404000400000100
(1645994399.609276) can0 0C5#30646367333C8867
(1645994399.609520) can0 184#000000000000
(1645994399.609745) can0 1C7#06E4391C00003F
(1645994399.609902) can0 1CD#0000000000
(1645994399.610152) can0 1E5#46FFAAE000005301
(1645994399.610483) can0 1E9#0FFD000C00050000
(1645994399.613262) can0 0C9#8015E2132F4008
(1645994399.613524) can0 0F1#28030040
(1645994399.613724) can0 191#07AD07AD07AD2E2E
(1645994399.613946) can0 1A1#00204000000036
(1645994399.614197) can0 1C3#07AD07AE00002E00
(1645994399.614396) can0 2C3#081D06A00753
(1645994399.614655) can0 3C1#0765E70000000000
(1645994399.614736) can0 334#0000
(1645994399.614986) can0 3D1#0156800021780000
(1645994399.615211) can0 3E9#159F0AAF1570064D
(1645994399.616186) can0 1E1#00FE120040
(1645994399.618004) can0 0C1#03EE059F01481316
(1645994399.618229) can0 0C5#006B84F60343AA06
(1645994399.618523) can0 1E5#46FFAA8000005601
(1645994399.620945) can0 0F9#00B4400AAE6B371E
(1645994399.621304) can0 199#CFFF0FFFEFFE00FF
(1645994399.622960) can0 0F1#34030040
(1645994399.623229) can0 1F3#0000
(1645994399.625055) can0 0C9#8015E2162F4008
(1645994399.625304) can0 191#07AD07AD07AD2D2D
(1645994399.626956) can0 0C1#13F82A1B11523782
(1645994399.627204) can0 0C5#1072A690134BD05D
(1645994399.627429) can0 184#000100000000
(1645994399.627682) can0 3ED#8000000000FF0000
(1645994399.627904) can0 1C7#06E4791B00003F
(1645994399.628064) can0 1CD#0000000000
(1645994399.628311) can0 1E5#46FFAAA000005501
(1645994399.628560) can0 1E9#0FFF000C00050000
(1645994399.628829) can0 2F9#D001000000
(1645994399.629004) can0 348#0B020B01
(1645994399.629185) can0 34A#0AF50AF7
(1645994399.633056) can0 0F1#00030040
(1645994399.633279) can0 0F9#00B4400AAE6B371E
(1645994399.633579) can0 199#0FFF0FFFF00100FF
(1645994399.633870) can0 19D#0000000000158116
(1645994399.634231) can0 1F5#4404000400000100
(1645994399.635692) can0 0C1#20014AED215B5840
(1645994399.635915) can0 0C5#207ACCED2352F1DC
(1645994399.636160) can0 1E5#46FFAAC000005401
(1645994399.637605) can0 0C9#8015ED192F4008
(1645994399.637840) can0 191#07AD07AD07AD2D2D
(1645994399.638063) can0 1A1#00204000000035
(1645994399.638305) can0 1C3#07AD07A900002D00
(1645994399.642956) can0 0F1#1C030040
(1645994399.643329) can0 1E1#00FD130060
(1645994399.644805) can0 0C1#300B6F6231657CB2
(1645994399.645028) can0 0C5#3081EE7733591372
(1645994399.645255) can0 184#000200000000
(1645994399.645519) can0 1C7#06E4B91A00003F
(1645994399.645720) can0 0F9#00B4400AAF6B5D1E
(1645994399.645920) can0 1CD#0000000000
(1645994399.646144) can0 199#4FFF0FFFF00000FF
(1645994399.646351) can0 1E5#46FFAAE000005301
(1645994399.646583) can0 1E9#0FFA000C00050000
(1645994399.646758) can0 334#0000
(1645994399.650182) can0 0C9#8015ED1C2F4008
(1645994399.650516) can0 191#07AD07AD07AD2D2D
(1645994399.653076) can0 0F1#28030040
(1645994399.653292) can0 1F3#0000
(1645994399.653944) can0 0C1#001593D8016FA130
(1645994399.654194) can0 0C5#008914CF036139C9
(1645994399.654512) can0 1E5#46FFAA8000005601
(1645994399.658256) can0 0F9#00B4400AAF6B5D1E
(1645994399.658576) can0 199#8FFF0FFFEFFF00FF
(1645994399.658859) can0 19D#40003FFF00158016
(1645994399.659235) can0 1F5#4404000400000100
(1645994399.662774) can0 0C1#101EB4A71178C20B
(1645994399.663017) can0 0C5#1090366513685B4B
(1645994399.663417) can0 184#000300000000
(1645994399.663522) can0 1C7#06E4F91900003F
(1645994399.663855) can0 0C9#8015DE132F4008
(1645994399.663858) can0 0F1#34030040
(1645994399.664179) can0 191#07AD07AD07AD2D2D
(1645994399.664267) can0 1CD#0000000000
(1645994399.664604) can0 1A1#00204000000035
(1645994399.664793) can0 1E5#46FFAAA000005501
(1645994399.665049) can0 1C3#07AD07A700002D00
(1645994399.665259) can0 1E9#0FF6000C00010000
(1645994399.665488) can0 2C3#081E06A00754
(1645994399.671042) can0 0F9#00B4400AAE6B7F1E
(1645994399.671247) can0 199#CFFF0FFFEFFE00FF
(1645994399.671656) can0 0C1#2028D9162182E682
(1645994399.671897) can0 0C5#209757EB236F7CEB
(1645994399.672144) can0 1E5#46FFAAC000005401
(1645994399.673120) can0 0F1#00030040
(1645994399.673417) can0 12A#4700000045773FFF
(1645994399.674667) can0 2F9#D801000000
(1645994399.674841) can0 334#0000
(1645994399.675017) can0 348#0B030AFE
(1645994399.675217) can0 0C9#8015E7162F4008
(1645994399.675395) can0 34A#0AF70AF6
(1645994399.675618) can0 191#07AC07AC07AD2D2D
(1645994399.675944) can0 134#00001000
(1645994399.678008) can0 1E1#0000100000
(1645994399.678410) can0 1F1#AE1600000800007A
(1645994399.680685) can0 3C9#0766000000000000
(1645994399.680878) can0 0C1#3031F9DD318C0AFA
(1645994399.681159) can0 0C5#309E79843377A34F
(1645994399.681352) can0 184#000000000000
(1645994399.681603) can0 1C7#06E4391C00003F
(1645994399.681790) can0 1CD#0000000000
(1645994399.682078) can0 1E5#46FFAAE000005301
(1645994399.682316) can0 1E9#0FF5000C00030000
(1645994399.683035) can0 0F1#1C030040
(1645994399.683273) can0 0F9#00B4400AAE6B7F1E
(1645994399.683359) can0 1F3#0000
(1645994399.683616) can0 199#0FFF0FFFF00100FF
(1645994399.683983) can0 19D#80003FFE00158216
(1645994399.684285) can0 1F5#4404000400000100
(1645994399.687742) can0 0C9#8015ED192E4008
(1645994399.687992) can0 191#07AC07AC07AC2C2C
(1645994399.688220) can0 1A1#00204000000035
(1645994399.688514) can0 1C3#07AC07A900002C00
(1645994399.690060) can0 0C1#003B1E5301952BB6
(1645994399.690302) can0 0C5#00A69FE0037EC4D7
(1645994399.690606) can0 17D#04E8000078000100
(1645994399.690736) can0 17F#0000000000000000
(1645994399.691081) can0 1E5#46FFAA8000005601
(1645994399.693140) can0 0F1#28030040
(1645994399.695619) can0 0F9#00B4400AAC6BA61E
(1645994399.695917) can0 199#4FFF0FFFF00000FF
(1645994399.698742) can0 0C1#104542CC119F502C
(1645994399.698992) can0 0C5#10ADC16F1385E675
(1645994399.699217) can0 184#000100000000
(1645994399.699512) can0 1C7#06E4791B00003F
(1645994399.699662) can0 1CD#0000000000
(1645994399.699896) can0 1E5#46FFAAA000005501
(1645994399.700109) can0 0C9#8015F91C2E4008
(1645994399.700331) can0 1E9#0FFC000C00030000
(1645994399.700557) can0 191#07AF07AF07AC2B2B
(1645994399.703140) can0 0F1#34030040
(1645994399.704632) can0 334#0000
(1645994399.705732) can0 1E1#00FF110020
(1645994399.707707) can0 0C1#204E639E21A87105
(1645994399.707951) can0 0C5#20B4E30A238C07F6
(1645994399.708212) can0 0F9#00B4400AAC6BA61E
(1645994399.708411) can0 1E5#46FFAAC000005401
(1645994399.708685) can0 199#8FFF0FFFEFFF00FF
(1645994399.708986) can0 19D#C0003FFD00157316
(1645994399.709317) can0 1F5#4404000400000100
(1645994399.713342) can0 0C9#8015FD132E4008
(1645994399.713609) can0 0F1#00030040
(1645994399.713743) can0 191#07AF07AF07AF2B2B
(1645994399.714030) can0 1A1#00204000000035
(1645994399.714185) can0 1C3#07AF07A600002B00
(1645994399.714477) can0 2C3#081C06A00754
(1645994399.714731) can0 3C1#0765E70000000000
(1645994399.714931) can0 3D1#0155800021720000
(1645994399.715211) can0 3E9#15970AC215710660
(1645994399.715402) can0 3F9#001939525A002C27
(1645994399.715546) can0 3FB#0200
(1645994399.715851) can0 4C1#15C6883A6D800000
(1645994399.716044) can0 4D1#00003C02127900C8
(1645994399.716328) can0 4F1#01B301B3000000C8
(1645994399.716330) can0 1F3#0000
(1645994399.716686) can0 772#00000000000000
(1645994399.716924) can0 0C1#3058882731B2957D
(1645994399.717136) can0 0C5#30BC096D33942E50
(1645994399.717375) can0 184#000200000000
(1645994399.717627) can0 1C7#06E4B91A00003F
(1645994399.717792) can0 1CD#0000000000
(1645994399.718052) can0 1E5#46FFAAE000005301
(1645994399.718324) can0 1E9#0001000C00070000
(1645994399.721351) can0 0F9#00B4400AB36BC81E
(1645994399.721661) can0 199#CFFF0FFFEFFE00FF
(1645994399.722710) can0 2F9#E001000000
(1645994399.722910) can0 348#0AFD0AFE
(1645994399.722997) can0 0F1#1C030040
(1645994399.723272) can0 34A#0AF40AF7
(1645994399.725125) can0 0C9#8015FD162D4008
(1645994399.725334) can0 191#07B107B107AF2A2A
(1645994399.726012) can0 0C1#0062ACAD01BCB9F8
(1645994399.726169) can0 0C5#00C32B01039B4FEF
(1645994399.726486) can0 1E5#46FFAA8000005601
(1645994399.727714) can0 3ED#8000000000FF0000
(1645994399.732949) can0 0F1#28030040
(1645994399.733203) can0 0F9#00B4400AB36BC81E
(1645994399.733367) can0 1E1#00FE120040
(1645994399.733632) can0 199#0FFF0FFFF00100FF
(1645994399.733925) can0 19D#0000000000159216
(1645994399.734213) can0 1F5#4404000400000100
(1645994399.734778) can0 0C1#106BCD8111C5DAC6
(1645994399.735002) can0 0C5#10CA4C9A13A3764A
(1645994399.735187) can0 184#000300000000
(1645994399.735456) can0 1C7#06E4F91900003F
(1645994399.735676) can0 1CD#0000000000
(1645994399.735925) can0 1E5#46FFAAA000005501
(1645994399.736161) can0 1E9#0FFB000C00070000
(1645994399.736327) can0 334#0000
(1645994399.737566) can0 0C9#80161C192D4008
(1645994399.737808) can0 191#07B107B107B12A2A
(1645994399.738138) can0 1A1#00204000000034
(1645994399.738424) can0 1C3#07B107A200002A00
(1645994399.742986) can0 0F1#34020040
(1645994399.743722) can0 0C1#2075F1FE21CFFF3F
(1645994399.743878) can0 0C5#20D272FA23AA97CB
(1645994399.744132) can0 1E5#46FFAAC000005401
(1645994399.745655) can0 0F9#00B4400AAA6BEE1E
(1645994399.745750) can0 1F3#0000
(1645994399.746030) can0 199#4FFF0FFFF00000FF
(1645994399.750134) can0 0C9#80160D1C2D4008
(1645994399.750384) can0 191#07B307B307B12929
(1645994399.752735) can0 0C1#307E12D231D923B2
(1645994399.752959) can0 0C5#30D9948333B1B96B
(1645994399.753137) can0 0F1#00030040
(1645994399.753335) can0 184#000000000000
(1645994399.753585) can0 1C7#06E4391C00003F
(1645994399.753785) can0 1CD#0000000000
(1645994399.753987) can0 1E5#46FFAAE000005301
(1645994399.754236) can0 1E9#0FF5000C00050000
(1645994399.758210) can0 0F9#00B4400AAA6BEE1E
(1645994399.758615) can0 199#8FFF0FFFEFFF00FF
(1645994399.758844) can0 19D#40003FFF00156D16
(1645994399.759152) can0 1F5#4404000400000100
(1645994399.761914) can0 0C1#0088374401E3482E
(1645994399.762160) can0 0C5#00E0B61803B9DFCF
(1645994399.762409) can0 1E5#46FFAA8000005601
(1645994399.762906) can0 0C9#80161A132D4008
(1645994399.763104) can0 191#07B307B307B32929
(1645994399.763403) can0 1A1#00204000000034
(1645994399.763563) can0 0F1#1C030040
(1645994399.763794) can0 1C3#07B3079F00002900
(1645994399.764007) can0 2C3#081A06A00753
(1645994399.764482) can0 334#0000
(1645994399.765932) can0 1E1#00FD130060
(1645994399.770527) can0 0F9#00B4400AAD6C151E
(1645994399.770772) can0 199#CFFF0FFFEFFE00FF
(1645994399.770988) can0 0C1#10925BBD11EC6916
(1645994399.771258) can0 0C5#10E8DC7B13C0015F
(1645994399.771537) can0 184#000100000000
(1645994399.771712) can0 1C7#06E4791B00003F
(1645994399.771927) can0 1CD#0000000000
(1645994399.772104) can0 1E5#46FFAAA000005501
(1645994399.772378) can0 1E9#0FF8000C00010000
(1645994399.772586) can0 2F9#E801000000
(1645994399.772805) can0 348#0B020AFD
(1645994399.772980) can0 0F1#28030040
(1645994399.773133) can0 34A#0AF60AF4
(1645994399.775221) can0 0C9#801632162C4008
(1645994399.775408) can0 191#07AB07AC07B32929
(1645994399.776055) can0 12A#4700000045773FFF
(1645994399.777912) can0 134#00001000
(1645994399.778181) can0 1F1#AE1600000800007A
(1645994399.779648) can0 0C1#209B7C9621F589E2
(1645994399.779855) can0 0C5#20EFFE0D23C72304
(1645994399.780104) can0 1E5#46FFAAC000005401
(1645994399.780572) can0 1F3#0000
(1645994399.782928) can0 0F1#34030040
(1645994399.783204) can0 3C9#0766000000000000
(1645994399.783524) can0 0F9#00B4400AAD6C151E
(1645994399.783772) can0 199#0FFF0FFFF00100FF
(1645994399.784072) can0 19D#80003FFE00158116
(1645994399.784396) can0 1F5#4404000400000100
(1645994399.785867) can0 3F1#00CF5A18FFFF006C
(1645994399.787707) can0 0C9#801631192C4008
(1645994399.787888) can0 191#07AB07AC07AC2828
(1645994399.788105) can0 1A1#00204000000033
(1645994399.788355) can0 1C3#07AB07A100002800
(1645994399.788848) can0 0C1#30A5A11631FFAE5F
(1645994399.789116) can0 0C5#30F61FAB33CE448D
(1645994399.789386) can0 17D#04E8000078000100
(1645994399.789637) can0 17F#0000000000000000
(1645994399.789813) can0 184#000200000000
(1645994399.790062) can0 1C7#06E4B91A00003F
(1645994399.790263) can0 1CD#0000000000
(1645994399.790555) can0 1E5#46FFAAE000005301
(1645994399.790805) can0 1E9#0FFD000C00050000
(1645994399.793062) can0 0F1#00030040
(1645994399.794535) can0 334#0000
(1645994399.795613) can0 1E1#0000100000
(1645994399.795799) can0 0F9#00B4400AAE6C371E
(1645994399.796163) can0 199#4FFF0FFFF00000FF
(1645994399.797888) can0 0C1#00AFC5960209D2D7
(1645994399.798135) can0 0C5#00FE461303D66AEE
(1645994399.798385) can0 1E5#46FFAA8000005601
(1645994399.800085) can0 0C9#8016411C2C4008
(1645994399.800335) can0 191#07A807A807AC2828
(1645994399.803085) can0 0F1#1C030040
(1645994399.806845) can0 0C1#10B8E6791212F3B5
(1645994399.806884) can0 0C5#110567AB13DD8C90
(1645994399.807256) can0 184#000300000000
(1645994399.807361) can0 1C7#06E4F91900003F
(1645994399.807688) can0 1CD#0000000000
(1645994399.807814) can0 1E5#46FFAAA000005501
(1645994399.808165) can0 0F9#00B4400AAE6C371E
(1645994399.808290) can0 1E9#0FFA000C00050000
(1645994399.808640) can0 199#8FFF0FFFEFFF00FF
(1645994399.808886) can0 19D#C0003FFD00158416
(1645994399.809210) can0 1F5#4404000400000100
(1645994399.812561) can0 0C9#801652132C4008
(1645994399.812810) can0 191#07A807A807A82828
(1645994399.813036) can0 1A1#00204000000033
(1645994399.813285) can0 1C3#07A8079F00002800
(1645994399.813463) can0 0F1#28030040
(1645994399.813594) can0 2C3#081A06A00752
(1645994399.813907) can0 3C1#0765E70000000000
(1645994399.814131) can0 3D1#0154800021740000
(1645994399.814394) can0 3E9#158D0AD5156E0674
(1645994399.815584) can0 0C1#20C20AFD221C1832
(1645994399.815830) can0 0C5#210C895323E4AE1D
(1645994399.816084) can0 1E5#46FFAAC000005401
(1645994399.816162) can0 1F3#0000
(1645994399.818583) can0 2F9#F001000000
(1645994399.818806) can0 348#0AFC0AFD
(1645994399.818981) can0 34A#0AF10AF3
(1645994399.820762) can0 0F9#00B4400AA96C5D1E
(1645994399.821132) can0 199#CFFF0FFFEFFE00FF
(1645994399.822937) can0 0F1#34030040
(1645994399.824682) can0 0C1#30CB2BD532263CB5
(1645994399.824930) can0 0C5#3113AAEC33ECD487
(1645994399.825156) can0 184#000000000000
(1645994399.825380) can0 1C7#06E4391C00003F
(1645994399.825583) can0 1CD#0000000000
(1645994399.825807) can0 0C9#801649162C4008
(1645994399.825981) can0 1E1#00FF110020
(1645994399.826189) can0 191#07A707A707A82828
(1645994399.826481) can0 1E5#46FFAAE000005301
(1645994399.826678) can0 1E9#0FFC000C00050000
(1645994399.826871) can0 334#0000
(1645994399.827657) can0 3ED#8000000000FF0000
(1645994399.832848) can0 0F1#00030040
(1645994399.833337) can0 0F9#00B4400AA96C5D1E
(1645994399.833616) can0 199#0FFF0FFFF00100FF
(1645994399.833886) can0 0C1#00D5505A02306136
(1645994399.834110) can0 19D#0000000000157B16
(1645994399.834336) can0 0C5#011BD15103F3F62F
(1645994399.834549) can0 1F5#4404000400000100
(1645994399.834836) can0 1E5#46FFAA8000005601
(1645994399.837482) can0 0C9#801649192C4008
(1645994399.837703) can0 191#07A707A707A82828
(1645994399.837954) can0 1A1#00204000000033
(1645994399.838253) can0 1C3#07A7079F00002800
(1645994399.842682) can0 0C1#10DF74D8123981F9
(1645994399.842856) can0 0F1#1C030040
(1645994399.843083) can0 0C5#1122F2EB13FA17B6
(1645994399.843236) can0 1F3#0000
(1645994399.843430) can0 184#000100000000
(1645994399.843655) can0 1C7#06E4791B00003F
(1645994399.843882) can0 1CD#0000000000
(1645994399.844087) can0 1E5#46FFAAA000005501
(1645994399.844338) can0 1E9#0FF6000C00050000
(1645994399.845846) can0 0F9#00B4400AAE6C7F1E
(1645994399.846155) can0 199#4FFF0FFFF00000FF
(1645994399.850010) can0 0C9#80164B1C2C4008
(1645994399.850237) can0 191#07A807A807A72828
(1645994399.851560) can0 0C1#20E895AD2242A2EB
(1645994399.851810) can0 0C5#2129147720023E24
(1645994399.852060) can0 1E5#46FFAAC000005401
(1645994399.852960) can0 0F1#28030040
(1645994399.854529) can0 334#0000
(1645994399.855660) can0 1E1#00FE120040
(1645994399.858139) can0 0F9#00B4400AAE6C7F1E
(1645994399.858437) can0 199#8FFF0FFFEFFF00FF
(1645994399.858761) can0 19D#40003FFF00158416
(1645994399.859089) can0 1F5#4404000400000100
(1645994399.860660) can0 0C1#30F2BA30324CC776
(1645994399.860910) can0 0C5#31313ADD30095FD4
(1645994399.861136) can0 184#000200000000
(1645994399.861327) can0 1C7#06E4B91A00003F
(1645994399.861587) can0 1CD#0000000000
(1645994399.861810) can0 1E5#46FFAAE000005301
(1645994399.862060) can0 1E9#0FF1000C00070000
(1645994399.862482) can0 0C9#801652132B4008
(1645994399.862728) can0 191#07A807A807A72828
(1645994399.862953) can0 1A1#00204000000032
(1645994399.863233) can0 1C3#07A807A100002800
(1645994399.863453) can0 2C3#081906A00750
(1645994399.863635) can0 0F1#34030040
(1645994399.866558) can0 2F9#F801000000
(1645994399.866780) can0 348#0AFF0AF8
(1645994399.866956) can0 34A#0AF40AF0
(1645994399.869861) can0 0C1#00FCDEAD0256EBF7
(1645994399.870135) can0 0C5#01385C8000108167
(1645994399.870360) can0 1E5#46FFAA8000005601
(1645994399.870562) can0 0F9#00B4400AAA6CA61E
(1645994399.870931) can0 199#CFFF0FFFEFFE00FF
(1645994399.872888) can0 0F1#00030040
(1645994399.873188) can0 12A#4700000045773FFF
(1645994399.875164) can0 0C9#801642162B4008
(1645994399.875385) can0 191#07A507A507A82727
(1645994399.875911) can0 134#00001000
(1645994399.877861) can0 1F1#AE1600000800007A
(1645994399.878211) can0 1F3#0000
(1645994399.878661) can0 0C1#1105FF89125F0CC2
(1645994399.878911) can0 0C5#113F7E1A1018A7D8
(1645994399.879136) can0 184#000300000000
(1645994399.879386) can0 1C7#06E4F91900003F
(1645994399.879587) can0 1CD#0000000000
(1645994399.879836) can0 1E5#46FFAAA000005501
(1645994399.880087) can0 1E9#0FFA000C00070000
(1645994399.880486) can0 3C9#0766000000000000
(1645994399.882812) can0 0F1#1C030040
(1645994399.883086) can0 1E1#00FD130060
(1645994399.883356) can0 0F9#00B4400AAA6CA61E
(1645994399.883685) can0 199#0FFF0FFFF00100FF
(1645994399.883982) can0 19D#80003FFE00156916
(1645994399.884310) can0 1F5#4404000400000100
(1645994399.884532) can0 334#0000
(1645994399.887585) can0 0C1#210F240C2269313F
(1645994399.887810) can0 0C9#80164B192B4008
(1645994399.888040) can0 0C5#2147A48F201FC980
(1645994399.888255) can0 191#07A507A507A52727
(1645994399.888530) can0 17D#04E8000078000100
(1645994399.888728) can0 1A1#00204000000032
(1645994399.888954) can0 17F#0000000000000000
(1645994399.889183) can0 1C3#07A5079F00002700
(1645994399.889526) can0 1E5#46FFAAC000005401
(1645994399.892865) can0 0F1#28030040
(1645994399.895785) can0 0F9#00B4400AAE6CC81E
(1645994399.896212) can0 199#4FFF0FFFF00000FF
(1645994399.896718) can0 0C1#311844F1327355B7
(1645994399.896842) can0 0C5#314EC6383026EB0C
(1645994399.897097) can0 184#000000000000
(1645994399.897315) can0 1C7#06E4391C00003F
(1645994399.897537) can0 1CD#0000000000
(1645994399.897786) can0 1E5#46FFAAE000005301
(1645994399.898065) can0 1E9#0FFA000C00070000
(1645994399.900109) can0 0C9#8016401C2B4008
(1645994399.900331) can0 191#07A407A407A52727
(1645994399.902912) can0 0F1#34030040
(1645994399.905438) can0 1F3#0000
(1645994399.905835) can0 0C1#0122697B027D7A38
(1645994399.906088) can0 0C5#0156ECA5002E1174
(1645994399.906338) can0 1E5#46FFAA8000005601
(1645994399.908238) can0 0F9#00B4400AAE6CC81E
(1645994399.908530) can0 199#8FFF0FFFEFFF00FF
(1645994399.908854) can0 19D#C0003FFD00158816
(1645994399.909179) can0 1F5#4404000400000100
(1645994399.912533) can0 0C9#80163A132B4008
(1645994399.912729) can0 191#07A407A407A42626
(1645994399.912933) can0 1A1#00204000000031
(1645994399.913203) can0 1C3#07A4079F00002600
(1645994399.913383) can0 0F1#00030040
(1645994399.913562) can0 2C3#081906A00750
(1645994399.913813) can0 3C1#0765E70000000000
(1645994399.914015) can0 3D1#01538000219F0000
(1645994399.914239) can0 3E9#15950AE8156A0687
(1645994399.914762) can0 0C1#112C8E0112869B29
(1645994399.915022) can0 0C5#115D0E3E1035331F
(1645994399.915283) can0 184#000100000000
(1645994399.915525) can0 1C7#06E4791B00003F
(1645994399.915722) can0 1CD#0000000000
(1645994399.915973) can0 1E5#46FFAAA000005501
(1645994399.916174) can0 1E1#0000100000
(1645994399.916398) can0 1E9#0FF7000C000B0000
(1645994399.916564) can0 2F9#0301000000
(1645994399.916713) can0 334#0000
(1645994399.916888) can0 348#0AFB0AFA
(1645994399.917063) can0 34A#0AF10AF3
(1645994399.920762) can0 0F9#00B4400AA76CEE1E
(1645994399.921087) can0 199#CFFF0FFFEFFE00FF
(1645994399.922782) can0 0F1#1C030040
(1645994399.923525) can0 0C1#2135AEDF228FBBF8
(1645994399.923773) can0 0C5#21642FDE203C54AD
(1645994399.924023) can0 1E5#46FFAAC000005401
(1645994399.924931) can0 0C9#801626162A4008
(1645994399.925155) can0 191#07A507A507A42626
(1645994399.927605) can0 3ED#8000000000FF0000
(1645994399.932632) can0 0C1#313FD3603299E07E
(1645994399.932806) can0 0F1#28030040
(1645994399.933031) can0 0C5#316B517430447B1F
(1645994399.933261) can0 0F9#00B4400AA76CEE1E
(1645994399.933525) can0 184#000200000000
(1645994399.933723) can0 199#0FFF0FFFF00100FF
(1645994399.933880) can0 1C7#06E4B91A00003F
(1645994399.934129) can0 19D#0000000000157716
(1645994399.934328) can0 1CD#0000000000
(1645994399.934481) can0 1F3#0000
(1645994399.934679) can0 1E5#46FFAAE000005301
(1645994399.934972) can0 1F5#4404000400000100
(1645994399.935222) can0 1E9#0FF4000C00090000
(1645994399.935448) can0 4C9#4062253400000000
(1645994399.938233) can0 0C9#801618192A4008
(1645994399.938525) can0 191#07A507A507A52626
(1645994399.938702) can0 1A1#00204000000031
(1645994399.938947) can0 1C3#07A507A000002600
(1645994399.941808) can0 0C1#0149F7DE02A3050D
(1645994399.942055) can0 0C5#017377DD004B9CD2
(1645994399.942306) can0 1E5#46FFAA8000005601
(1645994399.942806) can0 0F1#34030040
(1645994399.943056) can0 1E1#00FF110020
(1645994399.944430) can0 334#0000
(1645994399.945977) can0 0F9#00B4400AAE6D111E
(1645994399.946289) can0 199#4FFF0FFFF00000FF
(1645994399.949901) can0 0C9#8016181C2A4008
(1645994399.950149) can0 191#07A507A507A52626
(1645994399.950633) can0 0C1#115218BD12AC25FB
(1645994399.950851) can0 0C5#117A99861052BE6F
(1645994399.951099) can0 184#000300000000
(1645994399.951324) can0 1C7#06E4F91900003F
(1645994399.951521) can0 1CD#0000000000
(1645994399.951762) can0 1E5#46FFAAA000005501
(1645994399.951976) can0 1E9#0FF5000C00050000
(1645994399.952834) can0 0F1#00020040
(1645994399.958196) can0 0F9#00B4400AAE6D111E
(1645994399.958518) can0 199#8FFF0FFFEFFF00FF
(1645994399.958838) can0 19D#40003FFF00157416
(1645994399.959162) can0 1F5#4404000400000100
(1645994399.959519) can0 0C1#215C3D3D22B64A78
(1645994399.959736) can0 0C5#2181BB252059E022
(1645994399.959963) can0 1E5#46FFAAC000005401
(1645994399.962615) can0 0C9#80160B132A4008
(1645994399.962618) can0 2F9#0B01000000
(1645994399.962954) can0 191#07A507A507A52525
(1645994399.963042) can0 348#0AFD0AFB
(1645994399.963357) can0 1A1#00204000000031
(1645994399.963438) can0 0F1#1C030040
(1645994399.963636) can0 1C3#07A507A000002500
(1645994399.963977) can0 34A#0AEF0AEF
(1645994399.964057) can0 2C3#081706A00750
(1645994399.964307) can0 3F9#00194B545A002C27
(1645994399.964455) can0 3FB#0200
(1645994399.965773) can0 1F3#0000
(1645994399.968723) can0 0C1#31655E1C32C06EFF
(1645994399.968847) can0 0C5#3188DCCF30610697
(1645994399.969205) can0 184#000000000000
(1645994399.969314) can0 1C7#06E4391C00003F
(1645994399.969645) can0 1CD#0000000000
(1645994399.969761) can0 1E5#46FFAAE000005301
(1645994399.970181) can0 1E9#0000000C00050000
(1645994399.970988) can0 0F9#00B4400AA96D371E
(1645994399.971233) can0 199#CFFF0FFFEFFE00FF
(1645994399.973010) can0 0F1#28030040
(1645994399.973315) can0 12A#4700000045773FFF
(1645994399.974572) can0 334#0000
(1645994399.975239) can0 0C9#8015FE16294008
(1645994399.975334) can0 191#07A507A507A52424
(1645994399.975837) can0 134#00001000
(1645994399.977798) can0 0C1#016F82A502C98FC3
(1645994399.977970) can0 1E1#00FE120040
(1645994399.978225) can0 0C5#0190034500682828
(1645994399.978515) can0 1E5#46FFAA8000005601
(1645994399.980414) can0 1F1#AE1600000800007A
(1645994399.983038) can0 0F1#34030040
(1645994399.983137) can0 0F9#00B4400AA96D371E
(1645994399.983543) can0 3C9#0766000000000000
(1645994399.983620) can0 199#0FFF0FFFF00100FF
(1645994399.984090) can0 19D#80003FFE00157916
(1645994399.984294) can0 1F5#4404000400000100
(1645994399.986809) can0 0C1#1179A73312D3B445
(1645994399.987109) can0 0C5#119724E3106F49D2
(1645994399.987358) can0 17D#04E8000078000100
(1645994399.987579) can0 17F#0000000000000000
(1645994399.987828) can0 184#000100000000
(1645994399.988077) can0 1C7#06E4791B00003F
(1645994399.988189) can0 1CD#0000000000
(1645994399.988528) can0 0C9#8015FB19294008
(1645994399.988638) can0 1E5#46FFAAA000005501
(1645994399.989032) can0 191#07A507A507A52424
(1645994399.989135) can0 1E9#0003000C00090000
(1645994399.989493) can0 1A1#00204000000030
(1645994399.989631) can0 1C3#07A507A100002400
(1645994399.993190) can0 0F1#00030040
(1645994399.995516) can0 0C1#2182C81A22DCD534
(1645994399.995613) can0 1F3#0000
(1645994399.995828) can0 0C5#219E468D20777039
(1645994399.996063) can0 0F9#00B4400AAA6D591E
(1645994399.996289) can0 1E5#46FFAAC000005401
(1645994399.996546) can0 199#4FFF0FFFF00000FF
(1645994400.000023) can0 0C9#8015EB1C294008
(1645994400.000270) can0 191#07A307A307A52424
(1645994400.002871) can0 0F1#1C030040
(1645994400.004577) can0 0C1#318CECA532E6F9C0
(1645994400.004849) can0 0C5#31A66CFC307E91C2
(1645994400.005045) can0 184#000200000000
(1645994400.005310) can0 1C7#06E4B91A00003F
(1645994400.005563) can0 1E1#00FD130060
(1645994400.005692) can0 1CD#0000000000
(1645994400.006061) can0 1E5#46FFAAE000005301
(1645994400.006198) can0 1E9#0FFC000C00050000
(1645994400.006361) can0 334#0000
(1645994400.008334) can0 0F9#00B4400AAA6D591E
(1645994400.008624) can0 199#8FFF0FFFEFFF00FF
(1645994400.008984) can0 19D#C0003FFD00157216
(1645994400.009218) can0 1F5#4404000400000100
(1645994400.010483) can0 2F9#1301000000
(1645994400.010812) can0 348#0AFB0AF8
(1645994400.010890) can0 34A#0AF10AF4
(1645994400.012682) can0 0C9#8015D913294008
(1645994400.012832) can0 191#07A307A307A32424
(1645994400.013137) can0 1A1#00204000000030
(1645994400.013138) can0 0F1#28030040
(1645994400.013554) can0 1C3#07A3079D00002400
(1645994400.013628) can0 2C3#081306A00751
(1645994400.014040) can0 0C1#0196113102F01E45
(1645994400.014122) can0 3C1#0765E70000000000
(1645994400.014431) can0 0C5#01AD8E960086B832
(1645994400.014688) can0 3D1#0152800021690000
(1645994400.014879) can0 1E5#46FFAA8000005601
(1645994400.015051) can0 3E9#15950AFB1563069A
(1645994400.020837) can0 0F9#00B4400AA86D7F1E
(1645994400.021039) can0 199#CFFF0FFFEFFE00FF
(1645994400.022571) can0 0C1#119F320612F93F1A
(1645994400.022745) can0 0F1#34030040
(1645994400.022971) can0 0C5#11B4B03F108DD9E9
(1645994400.023097) can0 1F3#0000
(1645994400.023283) can0 184#000300000000
(1645994400.023548) can0 1C7#06E4F91900003F
(1645994400.023745) can0 1CD#0000000000
(1645994400.024023) can0 1E5#46FFAAA000005501
(1645994400.024274) can0 1E9#0FF8000C00030000
(1645994400.024948) can0 0C9#8015CC16294008
(1645994400.025170) can0 191#07A207A207A32424
(1645994400.025744) can0 3F1#00CF5A18FFFF006C
(1645994400.027707) can0 3ED#8000000000FF0000
(1645994400.031561) can0 0C1#21A95689230363A5
(1645994400.031657) can0 0C5#21BCD6B12094FB85
(1645994400.031942) can0 1E5#46FFAAC000005401
(1645994400.032844) can0 0F1#00030040
(1645994400.033042) can0 1E1#0000100000
(1645994400.033303) can0 0F9#00B4400AA86D7F1E
(1645994400.033601) can0 199#0FFF0FFFF00100FF
(1645994400.033925) can0 19D#0000000000158416
(1645994400.034249) can0 1F5#4404000400000100
(1645994400.034380) can0 334#0000
(1645994400.038128) can0 0C9#8015B819294008
(1645994400.038370) can0 191#07A207A207A22424
(1645994400.038601) can0 1A1#00204000000030
(1645994400.038854) can0 1C3#07A2079F00002400
(1645994400.040618) can0 0C1#31B2776D330D882E
(1645994400.040789) can0 0C5#31C3F855309B1D3A
(1645994400.040999) can0 184#000000000000
(1645994400.041270) can0 1C7#06E4391C00003F
(1645994400.041515) can0 1CD#0000000000
(1645994400.041716) can0 1E5#46FFAAE000005301
(1645994400.041961) can0 1E9#0FF8000C00030000
(1645994400.042796) can0 0F1#1C030040
(1645994400.046131) can0 0F9#00B4400AA66DA21E
(1645994400.046455) can0 199#4FFF0FFFF00000FF
(1645994400.049828) can0 0C1#01BC9BF60316A91E
(1645994400.050056) can0 0C9#8015B81C294008
(1645994400.050251) can0 0C5#01CA19FF00A343AF
(1645994400.050507) can0 191#07A207A207A22424
(1645994400.050763) can0 1E5#46FFAA8000005601
(1645994400.052956) can0 0F1#28030040
(1645994400.055581) can0 1F3#0000
(1645994400.058135) can0 0F9#00B4400AA66DA21E
(1645994400.058435) can0 199#8FFF0FFFEFFF00FF
(1645994400.058759) can0 19D#40003FFF00156216
(1645994400.058965) can0 0C1#11C6C0851320CDA3
(1645994400.059216) can0 1F5#4404000400000100
(1645994400.059446) can0 0C5#11D2407810AA6546
(1645994400.059665) can0 184#000100000000
(1645994400.059888) can0 1C7#06E4791B00003F
(1645994400.060010) can0 1CD#0000000000
(1645994400.060261) can0 1E5#46FFAAA000005501
(1645994400.060510) can0 1E9#0FFE000C00030000
(1645994400.060710) can0 2F9#1B01000000
(1645994400.060998) can0 348#0AFA0AF9
(1645994400.061159) can0 34A#0AEF0AEF
(1645994400.062560) can0 0C9#8015C013294008
(1645994400.062715) can0 191#07A207A207A22323
(1645994400.062950) can0 1A1#00204000000030
(1645994400.063231) can0 1C3#07A207A000002300
(1645994400.063431) can0 2C3#081006A00752
(1645994400.063572) can0 0F1#34030040
(1645994400.064373) can0 334#0000
(1645994400.066000) can0 1E1#00FF110020
(1645994400.067541) can0 0C1#21CFE16F2329EE74
(1645994400.067692) can0 0C5#21D9621A20B186F5
(1645994400.067965) can0 1E5#46FFAAC000005401
(1645994400.070634) can0 0F9#00B4400AAA6DC81E
(1645994400.070965) can0 199#CFFF0FFFEFFE00FF
(1645994400.072739) can0 0F1#00030040
(1645994400.075011) can0 0C9#8015C116294008
(1645994400.075261) can0 191#07A107A107A22323
(1645994400.075791) can0 12A#4700000045773FFF
(1645994400.076563) can0 0C1#31D90602333312FC
(1645994400.076779) can0 0C5#31E083CD30B8A886
(1645994400.077036) can0 184#000200000000
(1645994400.077261) can0 1C7#06E4B91A00003F
(1645994400.077530) can0 1CD#0000000000
(1645994400.077578) can0 134#00001000
(1645994400.077883) can0 1E5#46FFAAE000005301
(1645994400.078104) can0 1F1#AE1600000800007A
(1645994400.078355) can0 1E9#0FFC000C00070000
(1645994400.080298) can0 3C9#0766000000000000
(1645994400.082692) can0 0F1#1C020040
(1645994400.082961) can0 1F3#0000
(1645994400.083261) can0 0F9#00B4400AAA6DC81E
(1645994400.083586) can0 199#0FFF0FFFF00100FF
(1645994400.083886) can0 19D#80003FFE00158016
(1645994400.084215) can0 1F5#4404000400000100
(1645994400.085791) can0 0C1#01E32A94033D378D
(1645994400.086036) can0 0C5#01E8AA4600C0CEF8
(1645994400.086287) can0 17D#04E8000078000100
(1645994400.086567) can0 17F#0000000000000000
(1645994400.086741) can0 1E5#46FFAA8000005601
(1645994400.088522) can0 0C9#8015B619294008
(1645994400.088822) can0 191#07A107A107A12323
(1645994400.089036) can0 1A1#00204000000030
(1645994400.089287) can0 1C3#07A1079E00002300
(1645994400.092819) can0 0F1#28030040
(1645994400.094561) can0 0C1#11EC4B7F13465883
(1645994400.094810) can0 0C5#11EFCBE510C7F0A7
(1645994400.095035) can0 184#000300000000
(1645994400.095266) can0 1C7#06E4F91900003F
(1645994400.095535) can0 1E1#00FE120040
(1645994400.095609) can0 1CD#0000000000
(1645994400.095830) can0 1E5#46FFAAA000005501
(1645994400.096132) can0 0F9#00B4400AA36DEA1E
(1645994400.096354) can0 1E9#0FF4000C00070000
(1645994400.096611) can0 199#4FFF0FFFF00000FF
(1645994400.096691) can0 334#0000
(1645994400.100017) can0 0C9#8015BA1C294008
(1645994400.100290) can0 191#07A007A007A12323
(1645994400.102812) can0 0F1#34020040
(1645994400.103439) can0 0C1#21F6700A23507D06
(1645994400.103687) can0 0C5#21F6ED9020CE123A
(1645994400.103935) can0 1E5#46FFAAC000005401
(1645994400.106441) can0 2F9#2301000000
(1645994400.106664) can0 348#0AFA0AF9
(1645994400.106844) can0 34A#0AF00AF0
(1645994400.108238) can0 0F9#00B4400AA36DEA1E
(1645994400.108528) can0 199#8FFF0FFFEFFF00FF
(1645994400.108855) can0 19D#C0003FFD00155E16
(1645994400.109154) can0 1F5#4404000400000100
(1645994400.112440) can0 0C9#8015B813294008
(1645994400.112630) can0 0C1#31FF90E333599DDB
(1645994400.112913) can0 191#07A007A007A02323
(1645994400.113138) can0 0C5#31FD0F2D30D638AF
(1645994400.113316) can0 0F1#00030040
(1645994400.113531) can0 184#000000000000
(1645994400.113730) can0 1A1#00204000000030
(1645994400.113953) can0 1C7#06E4391C00003F
(1645994400.114156) can0 1C3#07A0079F00002300
(1645994400.114355) can0 1CD#0000000000
(1645994400.114538) can0 2C3#080E06A00752
(1645994400.114836) can0 1E5#46FFAAE000005301
(1645994400.115061) can0 3C1#0765E70000000000
(1645994400.115311) can0 1E9#0FF4000C00030000
(1645994400.115527) can0 3D1#0152800021620000
(1645994400.115763) can0 3E9#15850B0F156006AD
(1645994400.115912) can0 1F3#0000
(1645994400.120865) can0 0F9#00B4400AAC6E111E
(1645994400.121186) can0 199#CFFF0FFFEFFE00FF
(1645994400.121712) can0 0C1#0209B5690363C268
(1645994400.121967) can0 0C5#020535A000DD5A69
(1645994400.122211) can0 1E5#46FFAA8000005601
(1645994400.122689) can0 0F1#1C030040
(1645994400.122963) can0 1E1#00FD130060
(1645994400.124339) can0 334#0000
(1645994400.124887) can0 0C9#8015B516294008
(1645994400.125136) can0 191#079F079F07A02323
(1645994400.127610) can0 3ED#8000000000FF0000
(1645994400.130530) can0 0C1#1212D653136DE6F2
(1645994400.130781) can0 0C5#120C574F10E47C04
(1645994400.131004) can0 184#000100000000
(1645994400.131229) can0 1C7#06E4791B00003F
(1645994400.131431) can0 1CD#0000000000
(1645994400.131688) can0 1E5#46FFAAA000005501
(1645994400.131890) can0 1E9#0FF8000C00010000
(1645994400.132691) can0 0F1#28020040
(1645994400.133117) can0 0F9#00B4400AAC6E111E
(1645994400.133486) can0 199#0FFF0FFFF00100FF
(1645994400.133779) can0 19D#0000000000158016
(1645994400.134103) can0 1F5#4404000400000100
(1645994400.137386) can0 0C9#8015B519294008
(1645994400.137637) can0 191#079F079F079F2323
(1645994400.137888) can0 1A1#00204000000030
(1645994400.138141) can0 1C3#079F079F00002300
(1645994400.139385) can0 0C1#221CFAE4237607E4
(1645994400.139667) can0 0C5#221378F620ECA281
(1645994400.139865) can0 1E5#46FFAAC000005401
(1645994400.142743) can0 0F1#34030040
(1645994400.145413) can0 1F3#0000
(1645994400.145639) can0 0F9#00B4400AA46E331E
(1645994400.145963) can0 199#4FFF0FFFF00000FF
(1645994400.148533) can0 0C1#32261F7A33802C6D
(1645994400.148754) can0 0C5#321B9F7330F3C437
(1645994400.148981) can0 184#000200000000
(1645994400.149209) can0 1C7#06E4B91A00003F
(1645994400.149392) can0 1CD#0000000000
(1645994400.149662) can0 1E5#46FFAAE000005301
(1645994400.149864) can0 1E9#0FFE000C00010000
(1645994400.150138) can0 0C9#8015C41C284008
(1645994400.150354) can0 191#079E079E079F2323
(1645994400.152869) can0 0F1#00030040
(1645994400.154411) can0 2F9#2B01000000
(1645994400.154594) can0 334#0000
(1645994400.154793) can0 348#0AF70AF9
(1645994400.154971) can0 34A#0AEC0AEE
(1645994400.155536) can0 1E1#0000100000
(1645994400.157711) can0 0C1#022F4061038A50F5
(1645994400.157962) can0 0C5#0222C12600FAE5D0
(1645994400.158186) can0 0F9#00B4400AA46E331E
(1645994400.158437) can0 1E5#46FFAA8000005601
(1645994400.158614) can0 199#8FFF0FFFEFFF00FF
(1645994400.158942) can0 19D#40003FFF00157016
(1645994400.159311) can0 1F5#4404000400000100
(1645994400.162532) can0 0C9#8015C613284008
(1645994400.162729) can0 191#079E079E079F2323
(1645994400.162979) can0 1A1#00204000000030
(1645994400.163233) can0 1C3#079E079F00002300
(1645994400.163429) can0 2C3#080C06A00753
(1645994400.163607) can0 0F1#1C030040
(1645994400.166531) can0 0C1#123964F5139371CC
(1645994400.166754) can0 0C5#1229E2D011020C46
(1645994400.166932) can0 184#000300000000
(1645994400.167157) can0 1C7#06E4F91900003F
(1645994400.167356) can0 1CD#0000000000
(1645994400.167662) can0 1E5#46FFAAA000005501
(1645994400.167912) can0 1E9#0FFE000C00030000
(1645994400.170740) can0 0F9#00B4400AA86E591E
(1645994400.171038) can0 199#CFFF0FFFEFFE00FF
(1645994400.172782) can0 0F1#28030040
(1645994400.175340) can0 0C9#8015C516284008
(1645994400.175563) can0 0C1#224285DB239D965E
(1645994400.175788) can0 12A#4700000045773FFF
(1645994400.176013) can0 0C5#2231094821092DF8
(1645994400.176204) can0 191#079E079E079E2323
(1645994400.176531) can0 1E5#46FFAAC000005401
(1645994400.177612) can0 134#00001000
(1645994400.178117) can0 1F1#AE1600000800007A
(1645994400.180183) can0 1F3#0000
(1645994400.180611) can0 3C9#0766000000000000
(1645994400.182693) can0 0F1#34030040
(1645994400.183062) can0 1E1#00FF110020
(1645994400.183436) can0 0F9#00B4400AA86E591E
(1645994400.183763) can0 199#0FFF0FFFF00100FF
(1645994400.184061) can0 19D#80003FFE00157316
(1645994400.184387) can0 1F5#4404000400000100
(1645994400.184663) can0 0C1#324CAA6D33A6B756
(1645994400.184913) can0 0C5#32382AF931104F93
(1645994400.185188) can0 17D#04E8000078000100
(1645994400.185438) can0 17F#0000000000000000
(1645994400.185614) can0 184#000000000000
(1645994400.185863) can0 1C7#06E4391C00003F
(1645994400.186065) can0 1CD#0000000000
(1645994400.186314) can0 1E5#46FFAAE000005301
(1645994400.186563) can0 1E9#0FF3000C00010000
(1645994400.186762) can0 334#0000
(1645994400.187589) can0 0C9#8015C619284008
(1645994400.187837) can0 191#079E079E079E2323
(1645994400.188066) can0 1A1#0020400000002F
(1645994400.188288) can0 1C3#079E079E00002300
(1645994400.192591) can0 0F1#00030040
(1645994400.193693) can0 0C1#0256CEFC03B0DBDE
(1645994400.193912) can0 0C5#023F4C970118760E
(1645994400.194163) can0 1E5#46FFAA8000005601
(1645994400.195662) can0 0F9#00B4400AA76E7F1E
(1645994400.195987) can0 199#4FFF0FFFF00000FF
(1645994400.199964) can0 0C9#8015CF1C284008
(1645994400.200214) can0 191#07A007A0079E2323
(1645994400.202663) can0 0C1#125FEFE013BA006C
(1645994400.202842) can0 0F1#1C030040
(1645994400.203062) can0 0C5#12466E40111F97CB
(1645994400.203293) can0 184#000100000000
(1645994400.203531) can0 1C7#06E4791B00003F
(1645994400.203711) can0 1CD#0000000000
(1645994400.203906) can0 1E5#46FFAAA000005501
(1645994400.204183) can0 1E9#0FF0000C00010000
(1645994400.204380) can0 2F9#3301000000
(1645994400.204564) can0 348#0AF90AF8
(1645994400.204788) can0 34A#0AF00AED
(1645994400.205410) can0 1F3#0000
(1645994400.208391) can0 0F9#00B4400AA76E7F1E
(1645994400.208689) can0 199#8FFF0FFFEFFF00FF
(1645994400.208989) can0 19D#C0003FFD00157716
(1645994400.209314) can0 1F5#4404000400000100
(1645994400.211340) can0 0C1#2269147023C32148
(1645994400.211612) can0 0C5#224E94B62126B96E
(1645994400.211862) can0 1E5#46FFAAC000005401
(1645994400.212414) can0 0C9#8015C613284008
(1645994400.212638) can0 191#07A007A007A02323
(1645994400.212862) can0 1A1#00204000000030
